CITIFILE A.01.00
#NA VERSION HP8719ES.07.66: Jul 25, 2000
NAME DATA
VAR FREQ MAG 201
DATA S[1,1] RI
SEG_LIST_BEGIN
SEG 500000000 2500000000 201
SEG_LIST_END
BEGIN
-3.09448E-2,-9.93652E-1
-1.05835E-1,-9.86236E-1
-1.82739E-1,-9.75799E-1
-2.58819E-1,-9.60174E-1
-3.31146E-1,-9.3573E-1
-4.01184E-1,-9.04815E-1
-4.67468E-1,-8.75427E-1
-5.35400E-1,-8.35327E-1
-5.96557E-1,-7.92175E-1
-6.58691E-1,-7.44751E-1
-7.10388E-1,-6.89331E-1
-7.60620E-1,-6.34399E-1
-8.06457E-1,-5.74890E-1
-8.47595E-1,-5.10009E-1
-8.80737E-1,-4.43603E-1
-9.12658E-1,-3.78784E-1
-9.39819E-1,-3.09082E-1
-9.58129E-1,-2.39074E-1
-9.72961E-1,-1.67846E-1
-9.82391E-1,-9.50927E-2
-9.86511E-1,-2.45361E-2
-9.85595E-1,0.47485E-1
-9.78729E-1,1.19140E-1
-9.66674E-1,1.8927E-1
-9.49432E-1,2.58117E-1
-9.28466E-1,3.26477E-1
-9.02893E-1,3.93798E-1
-8.72009E-1,4.57153E-1
-8.33435E-1,5.19775E-1
-7.94189E-1,5.79101E-1
-7.48535E-1,6.34216E-1
-7.00012E-1,6.86340E-1
-6.47705E-1,7.34436E-1
-5.93689E-1,7.80944E-1
-5.35156E-1,8.20800E-1
-4.74243E-1,8.56079E-1
-4.07592E-1,8.86718E-1
-3.44604E-1,9.15039E-1
-2.80395E-1,9.36645E-1
-2.12158E-1,9.53247E-1
-1.43615E-1,9.63928E-1
-7.59887E-2,9.71801E-1
-5.00488E-3,9.73266E-1
0.61523E-1,9.71252E-1
1.32202E-1,9.61792E-1
1.99920E-1,9.49249E-1
2.66906E-1,9.31060E-1
3.33709E-1,9.08935E-1
3.98498E-1,8.79760E-1
4.59777E-1,8.46801E-1
5.20111E-1,8.10943E-1
5.74981E-1,7.71637E-1
6.30218E-1,7.25372E-1
6.78863E-1,6.79321E-1
7.28576E-1,6.26068E-1
7.70172E-1,5.64666E-1
8.07647E-1,5.07415E-1
8.37616E-1,4.48608E-1
8.66882E-1,3.86291E-1
8.92395E-1,3.21197E-1
9.10827E-1,2.51159E-1
9.23584E-1,1.84570E-1
9.29138E-1,1.17065E-1
9.35852E-1,0.45654E-1
9.33227E-1,-2.42919E-2
9.21569E-1,-9.62524E-2
9.10034E-1,-1.65893E-1
8.90014E-1,-2.36022E-1
8.64257E-1,-3.05358E-1
8.31817E-1,-3.72894E-1
7.94433E-1,-4.3573E-1
7.50183E-1,-4.96337E-1
7.01507E-1,-5.50048E-1
6.49810E-1,-6.00677E-1
5.9198E-1,-6.44622E-1
5.35675E-1,-6.77795E-1
4.81628E-1,-7.15850E-1
4.18670E-1,-7.48870E-1
3.52294E-1,-7.77587E-1
2.80029E-1,-7.98461E-1
2.02880E-1,-8.06152E-1
1.30798E-1,-8.08044E-1
0.57739E-1,-8.02368E-1
-1.64184E-2,-7.87170E-1
-7.86132E-2,-7.64221E-1
-1.42517E-1,-7.39990E-1
-1.98120E-1,-7.08252E-1
-2.59704E-1,-6.76879E-1
-3.11645E-1,-6.33422E-1
-3.59130E-1,-5.86853E-1
-3.94348E-1,-5.37231E-1
-4.28955E-1,-4.97985E-1
-4.67895E-1,-4.44519E-1
-4.96154E-1,-3.85009E-1
-5.15686E-1,-3.24157E-1
-5.24231E-1,-2.63488E-1
-5.26397E-1,-2.00408E-1
-5.13061E-1,-1.36993E-1
-4.85839E-1,-9.17358E-2
-4.76593E-1,-5.51452E-2
-4.59991E-1,-3.26538E-3
-4.22332E-1,0.44647E-1
-3.84216E-1,0.65185E-1
-3.63586E-1,0.81604E-1
-3.41522E-1,1.09985E-1
-3.13812E-1,1.37817E-1
-2.80334E-1,1.60858E-1
-2.51617E-1,1.73278E-1
-2.08770E-1,1.96838E-1
-1.70562E-1,1.90979E-1
-1.46652E-1,1.89224E-1
-1.13708E-1,1.93679E-1
-8.03909E-2,1.82754E-1
-4.76074E-2,1.68846E-1
-1.94625E-2,1.33956E-1
-3.18298E-2,1.05857E-1
-2.81181E-2,9.95903E-2
-2.32734E-2,9.40017E-2
-1.54914E-2,9.02519E-2
0.56419E-2,8.00514E-2
2.22473E-2,6.45217E-2
3.60374E-2,2.90451E-2
2.32238E-2,-2.83241E-4
8.58688E-3,-1.27358E-2
0.31709E-2,-1.80635E-2
-1.58309E-4,-3.80058E-2
-1.3937E-2,-5.69858E-2
-4.62379E-2,-6.07948E-2
-6.61506E-2,-5.03349E-2
-8.04863E-2,-4.05807E-2
-8.27522E-2,-2.13203E-2
-8.15620E-2,-1.89552E-2
-8.91380E-2,-2.66914E-2
-1.12625E-1,-1.97677E-2
-1.32431E-1,0.02754E-1
-1.32965E-1,0.23529E-1
-1.36238E-1,0.42610E-1
-1.3237E-1,0.68420E-1
-1.14788E-1,8.16497E-2
-1.12243E-1,8.73832E-2
-1.06582E-1,1.00719E-1
-9.65118E-2,1.12114E-1
-8.14247E-2,1.23760E-1
-6.86035E-2,1.26083E-1
-5.88531E-2,1.33667E-1
-4.41970E-2,1.45156E-1
-2.07061E-2,1.50253E-1
-4.83703E-3,1.54403E-1
0.26397E-1,1.63787E-1
0.71090E-1,1.51077E-1
9.48791E-2,1.17675E-1
9.84344E-2,9.86785E-2
1.09222E-1,8.70513E-2
1.29730E-1,0.69839E-1
1.42807E-1,0.49835E-1
1.54167E-1,0.22247E-1
1.61087E-1,-2.66265E-3
1.67297E-1,-3.34167E-2
1.72653E-1,-6.55059E-2
1.68396E-1,-1.11099E-1
1.48956E-1,-1.49597E-1
1.22268E-1,-1.85257E-1
0.9375E-1,-2.10266E-1
0.78949E-1,-2.42797E-1
0.38818E-1,-2.85461E-1
-1.53198E-2,-3.21380E-1
-7.80029E-2,-3.34716E-1
-1.35803E-1,-3.38806E-1
-1.92260E-1,-3.37493E-1
-2.47161E-1,-3.32153E-1
-3.07617E-1,-3.22357E-1
-3.68255E-1,-3.03039E-1
-4.35913E-1,-2.76519E-1
-4.98535E-1,-2.28820E-1
-5.50964E-1,-1.70288E-1
-5.96038E-1,-1.05773E-1
-6.31774E-1,-3.40576E-2
-6.59545E-1,0.37719E-1
-6.84204E-1,1.27075E-1
-6.89331E-1,2.19268E-1
-6.76605E-1,3.13690E-1
-6.53503E-1,4.01977E-1
-6.21398E-1,4.86694E-1
-5.78216E-1,5.67291E-1
-5.24627E-1,6.44622E-1
-4.59930E-1,7.13592E-1
-3.88092E-1,7.71575E-1
-3.11523E-1,8.21563E-1
-2.30651E-1,8.61206E-1
-1.45782E-1,8.91815E-1
-5.66406E-2,9.11285E-1
0.30395E-1,9.19860E-1
1.18408E-1,9.22302E-1
2.05017E-1,9.13452E-1
2.91107E-1,8.97460E-1
3.73809E-1,8.69262E-1
4.54223E-1,8.34594E-1
5.28656E-1,7.94372E-1
5.99792E-1,7.46551E-1
6.63757E-1,6.94274E-1
7.21252E-1,6.37298E-1
END

