CITIFILE A.01.00
#NA VERSION HP8719ES.07.66: Jul 25, 2000
NAME DATA
VAR FREQ MAG 201
DATA S[1,1] RI
SEG_LIST_BEGIN
SEG 500000000 2500000000 201
SEG_LIST_END
BEGIN
7.17834E-1,-6.84143E-1
6.66290E-1,-7.30835E-1
6.26556E-1,-7.77618E-1
5.69641E-1,-8.20251E-1
5.06408E-1,-8.53485E-1
4.46716E-1,-8.82690E-1
3.86718E-1,-9.10705E-1
3.26904E-1,-9.38537E-1
2.65136E-1,-9.58252E-1
2.00073E-1,-9.72900E-1
1.34521E-1,-9.80957E-1
0.71533E-1,-9.91699E-1
0.03784E-1,-9.89502E-1
-5.96313E-2,-9.91943E-1
-1.23291E-1,-9.93530E-1
-1.86096E-1,-9.78332E-1
-2.49450E-1,-9.61242E-1
-3.10546E-1,-9.42871E-1
-3.69689E-1,-9.20898E-1
-4.26452E-1,-8.96728E-1
-4.86267E-1,-8.70727E-1
-5.39856E-1,-8.36731E-1
-5.89019E-1,-7.97149E-1
-6.36840E-1,-7.58758E-1
-6.82220E-1,-7.17651E-1
-7.27569E-1,-6.75079E-1
-7.69134E-1,-6.27929E-1
-8.04779E-1,-5.77789E-1
-8.39630E-1,-5.24993E-1
-8.71398E-1,-4.73205E-1
-8.95874E-1,-4.17419E-1
-9.22699E-1,-3.60382E-1
-9.42779E-1,-3.03375E-1
-9.58313E-1,-2.45422E-1
-9.69970E-1,-1.85668E-1
-9.79126E-1,-1.26525E-1
-9.86022E-1,-6.60400E-2
-9.87487E-1,-6.10351E-3
-9.84863E-1,0.55175E-1
-9.78698E-1,1.14135E-1
-9.70672E-1,1.72546E-1
-9.57275E-1,2.30865E-1
-9.40612E-1,2.88635E-1
-9.21325E-1,3.44909E-1
-8.98529E-1,3.99017E-1
-8.72375E-1,4.51843E-1
-8.42590E-1,5.03387E-1
-8.09967E-1,5.53009E-1
-7.75482E-1,6.00219E-1
-7.38098E-1,6.44836E-1
-6.97540E-1,6.88201E-1
-6.54632E-1,7.27966E-1
-6.09497E-1,7.65319E-1
-5.64453E-1,8.01879E-1
-5.12939E-1,8.32336E-1
-4.63439E-1,8.59375E-1
-4.10461E-1,8.86474E-1
-3.56079E-1,9.11682E-1
-2.99560E-1,9.28161E-1
-2.42858E-1,9.45861E-1
-1.89392E-1,9.58313E-1
-1.32080E-1,9.66918E-1
-7.26318E-2,9.71557E-1
-1.68457E-2,9.73510E-1
0.44189E-1,9.74365E-1
1.04126E-1,9.66552E-1
1.54418E-1,9.60083E-1
2.13989E-1,9.48913E-1
2.68920E-1,9.33044E-1
3.24829E-1,9.15771E-1
3.80920E-1,8.94409E-1
4.30542E-1,8.69018E-1
4.72656E-1,8.43933E-1
5.26184E-1,8.11706E-1
5.78674E-1,7.74536E-1
6.21704E-1,7.37304E-1
6.64245E-1,6.99035E-1
7.05719E-1,6.58142E-1
7.41516E-1,6.14685E-1
7.77740E-1,5.66436E-1
8.09265E-1,5.19317E-1
8.38684E-1,4.67193E-1
8.64318E-1,4.09484E-1
8.84826E-1,3.68072E-1
9.03869E-1,3.12255E-1
9.18273E-1,2.52197E-1
9.28070E-1,1.93145E-1
9.37835E-1,1.37542E-1
9.43420E-1,0.80200E-1
9.46350E-1,0.21179E-1
9.42749E-1,-3.75976E-2
9.36401E-1,-9.53369E-2
9.25659E-1,-1.55212E-1
9.08050E-1,-2.13073E-1
8.90319E-1,-2.69989E-1
8.79150E-1,-3.20068E-1
8.50585E-1,-3.76098E-1
8.17535E-1,-4.30328E-1
7.84210E-1,-4.81872E-1
7.48931E-1,-5.28625E-1
7.09564E-1,-5.75744E-1
6.68121E-1,-6.18438E-1
6.22619E-1,-6.58905E-1
5.72296E-1,-6.95068E-1
5.22644E-1,-7.26684E-1
4.66583E-1,-7.53112E-1
4.16015E-1,-7.77648E-1
3.70300E-1,-8.04321E-1
3.08471E-1,-8.20373E-1
2.46215E-1,-8.29467E-1
1.86035E-1,-8.33557E-1
1.32629E-1,-8.38134E-1
0.77148E-1,-8.42529E-1
0.17334E-1,-8.39111E-1
-3.90625E-2,-8.31054E-1
-9.66796E-2,-8.16467E-1
-1.50329E-1,-7.99255E-1
-2.04467E-1,-7.80029E-1
-2.57629E-1,-7.60803E-1
-3.03527E-1,-7.34985E-1
-3.56079E-1,-7.02636E-1
-4.01489E-1,-6.64062E-1
-4.44458E-1,-6.25E-1
-4.82910E-1,-5.81848E-1
-5.14221E-1,-5.39794E-1
-5.48645E-1,-4.92095E-1
-5.71533E-1,-4.44091E-1
-5.92102E-1,-3.93249E-1
-6.09100E-1,-3.49182E-1
-6.31652E-1,-2.95654E-1
-6.49810E-1,-2.38525E-1
-6.49078E-1,-1.76971E-1
-6.39343E-1,-1.19293E-1
-6.26525E-1,-7.24182E-2
-6.16149E-1,-2.32849E-2
-6.06262E-1,0.17425E-1
-5.95001E-1,0.71533E-1
-5.67810E-1,1.23168E-1
-5.32684E-1,1.64001E-1
-4.97009E-1,1.96960E-1
-4.65332E-1,2.20825E-1
-4.38751E-1,2.50946E-1
-4.04983E-1,2.78701E-1
-3.66333E-1,3.03817E-1
-3.24981E-1,3.17886E-1
-2.89825E-1,3.30764E-1
-2.49496E-1,3.39614E-1
-2.18902E-1,3.43734E-1
-1.80908E-1,3.50341E-1
-1.46942E-1,3.47091E-1
-1.10977E-1,3.44238E-1
-7.77893E-2,3.35739E-1
-5.39093E-2,3.19824E-1
-3.81469E-2,3.10745E-1
-1.67846E-2,3.0896E-1
0.12085E-1,3.05145E-1
0.44860E-1,2.96112E-1
0.72265E-1,2.71881E-1
0.92804E-1,2.44598E-1
0.95672E-1,2.20245E-1
1.01135E-1,2.05200E-1
1.03576E-1,2.00805E-1
1.33636E-1,1.99523E-1
1.57897E-1,1.71661E-1
1.69921E-1,1.34353E-1
1.66915E-1,1.07055E-1
1.63726E-1,0.85632E-1
1.57165E-1,0.66055E-1
1.48490E-1,0.50788E-1
1.47094E-1,0.41908E-1
1.46575E-1,0.32577E-1
1.45225E-1,0.13610E-1
1.39381E-1,-2.79998E-3
1.25442E-1,-1.59530E-2
1.20132E-1,-2.35672E-2
1.14563E-1,-3.96652E-2
9.23881E-2,-4.80155E-2
8.52966E-2,-4.57382E-2
7.26470E-2,-5.68237E-2
5.81169E-2,-5.35812E-2
4.27665E-2,-4.40559E-2
5.07392E-2,-3.6129E-2
5.37262E-2,-4.15916E-2
4.88967E-2,-4.69894E-2
4.88548E-2,-5.22995E-2
3.92990E-2,-6.48765E-2
1.77326E-2,-5.97877E-2
1.73072E-2,-4.68368E-2
2.41851E-2,-4.55112E-2
2.48050E-2,-5.20916E-2
1.52397E-2,-5.26981E-2
1.61914E-2,-4.77638E-2
1.79996E-2,-4.81300E-2
2.36187E-2,-4.70714E-2
3.04966E-2,-5.55610E-2
2.44293E-2,-7.03506E-2
1.50680E-2,-7.48100E-2
0.34332E-2,-6.92367E-2
1.05667E-2,-6.21643E-2
1.42631E-2,-6.70433E-2
1.69410E-2,-6.91261E-2
END

