CITIFILE A.01.00
#NA VERSION HP8719D.07.40
NAME DATA
VAR FREQ MAG 201
DATA S[1,1] RI
DATA S[2,1] RI
DATA S[1,2] RI
DATA S[2,2] RI
SEG_LIST_BEGIN
SEG 1000000000 3000000000 201
SEG_LIST_END
BEGIN
5.87432E-1,-7.28820E-1
5.69122E-1,-7.43225E-1
5.50567E-1,-7.58361E-1
5.32043E-1,-7.73529E-1
5.12542E-1,-7.88604E-1
4.92919E-1,-8.01727E-1
4.73083E-1,-8.14941E-1
4.51995E-1,-8.27819E-1
4.30450E-1,-8.39904E-1
4.07226E-1,-8.51898E-1
3.83697E-1,-8.61236E-1
3.59863E-1,-8.69751E-1
3.35876E-1,-8.76983E-1
3.11737E-1,-8.83636E-1
2.88360E-1,-8.88122E-1
2.65960E-1,-8.93676E-1
2.43469E-1,-8.98040E-1
2.20092E-1,-9.01641E-1
1.96777E-1,-9.04632E-1
1.73706E-1,-9.06158E-1
1.50817E-1,-9.07928E-1
1.27563E-1,-9.08844E-1
1.03790E-1,-9.09484E-1
0.78125E-1,-9.08874E-1
0.53802E-1,-9.06372E-1
0.29113E-1,-9.04632E-1
0.02410E-1,-9.02587E-1
-2.49023E-2,-8.98284E-1
-5.20019E-2,-8.93371E-1
-8.04443E-2,-8.87847E-1
-1.08642E-1,-8.80065E-1
-1.37146E-1,-8.72314E-1
-1.65771E-1,-8.62060E-1
-1.93725E-1,-8.50830E-1
-2.22656E-1,-8.39233E-1
-2.51647E-1,-8.25927E-1
-2.80456E-1,-8.11401E-1
-3.09265E-1,-7.94311E-1
-3.37280E-1,-7.75817E-1
-3.65112E-1,-7.55615E-1
-3.91540E-1,-7.33886E-1
-4.16687E-1,-7.10205E-1
-4.41894E-1,-6.85302E-1
-4.65942E-1,-6.58508E-1
-4.88403E-1,-6.28601E-1
-5.09338E-1,-5.97351E-1
-5.28137E-1,-5.64941E-1
-5.45654E-1,-5.29663E-1
-5.62194E-1,-4.92919E-1
-5.76538E-1,-4.53002E-1
-5.87951E-1,-4.11865E-1
-5.98266E-1,-3.69934E-1
-6.06750E-1,-3.26019E-1
-6.12365E-1,-2.79907E-1
-6.14257E-1,-2.32727E-1
-6.12609E-1,-1.85852E-1
-6.07971E-1,-1.37085E-1
-5.97961E-1,-8.70971E-2
-5.81970E-1,-3.57055E-2
-5.59783E-1,0.14526E-1
-5.32074E-1,0.63812E-1
-4.97436E-1,1.11496E-1
-4.58892E-1,1.56036E-1
-4.13482E-1,2.00058E-1
-3.61312E-1,2.42416E-1
-3.02139E-1,2.78076E-1
-2.36160E-1,3.07983E-1
-1.66183E-1,3.28247E-1
-9.44824E-2,3.38531E-1
-2.34222E-2,3.39111E-1
0.47622E-1,3.36959E-1
1.22161E-1,3.23440E-1
1.92932E-1,2.96936E-1
2.57507E-1,2.63122E-1
3.21411E-1,2.22412E-1
3.77471E-1,1.71051E-1
4.24285E-1,1.13281E-1
4.62768E-1,0.52246E-1
4.92492E-1,-1.20239E-2
5.13122E-1,-7.69043E-2
5.25817E-1,-1.41632E-1
5.30273E-1,-2.04223E-1
5.27954E-1,-2.64160E-1
5.20080E-1,-3.19824E-1
5.08422E-1,-3.72406E-1
4.93713E-1,-4.21157E-1
4.76928E-1,-4.66308E-1
4.57489E-1,-5.09277E-1
4.33746E-1,-5.50537E-1
4.07043E-1,-5.88012E-1
3.77533E-1,-6.19384E-1
3.49487E-1,-6.45843E-1
3.21441E-1,-6.70349E-1
2.92633E-1,-6.92901E-1
2.61535E-1,-7.14019E-1
2.29492E-1,-7.30499E-1
1.987E-1,-7.44567E-1
1.68792E-1,-7.56561E-1
1.37542E-1,-7.68310E-1
1.07666E-1,-7.79235E-1
0.75836E-1,-7.88879E-1
0.43640E-1,-7.95349E-1
0.12542E-1,-7.99804E-1
-1.96228E-2,-8.03100E-1
-5.10864E-2,-8.01757E-1
-7.98950E-2,-8.00415E-1
-1.08886E-1,-7.97363E-1
-1.37603E-1,-7.94097E-1
-1.65039E-1,-7.86010E-1
-1.90612E-1,-7.79113E-1
-2.14172E-1,-7.71850E-1
-2.38708E-1,-7.65564E-1
-2.60742E-1,-7.59948E-1
-2.84912E-1,-7.52258E-1
-3.06091E-1,-7.44018E-1
-3.25805E-1,-7.37487E-1
-3.45397E-1,-7.31994E-1
-3.65722E-1,-7.26440E-1
-3.86352E-1,-7.20214E-1
-4.07043E-1,-7.13501E-1
-4.27307E-1,-7.04345E-1
-4.47265E-1,-6.94824E-1
-4.66613E-1,-6.86157E-1
-4.88586E-1,-6.74560E-1
-5.10314E-1,-6.60400E-1
-5.3125E-1,-6.43798E-1
-5.49438E-1,-6.27258E-1
-5.68115E-1,-6.10778E-1
-5.84838E-1,-5.94116E-1
-6.01379E-1,-5.76171E-1
-6.18530E-1,-5.57861E-1
-6.32995E-1,-5.38024E-1
-6.46362E-1,-5.19958E-1
-6.60461E-1,-5.01281E-1
-6.73767E-1,-4.80651E-1
-6.87011E-1,-4.60022E-1
-6.99707E-1,-4.36584E-1
-7.09777E-1,-4.11804E-1
-7.18811E-1,-3.87390E-1
-7.25585E-1,-3.64624E-1
-7.34252E-1,-3.41552E-1
-7.43042E-1,-3.16711E-1
-7.51525E-1,-2.89733E-1
-7.55676E-1,-2.60559E-1
-7.57476E-1,-2.33123E-1
-7.58789E-1,-2.06115E-1
-7.58606E-1,-1.76910E-1
-7.54547E-1,-1.47766E-1
-7.49511E-1,-1.18652E-1
-7.43347E-1,-8.77990E-2
-7.31994E-1,-5.59387E-2
-7.19421E-1,-2.52990E-2
-7.03949E-1,0.06897E-1
-6.85241E-1,0.40283E-1
-6.60278E-1,0.72784E-1
-6.32293E-1,1.00860E-1
-6.03790E-1,1.25732E-1
-5.74951E-1,1.47827E-1
-5.46142E-1,1.67968E-1
-5.15899E-1,1.87530E-1
-4.81887E-1,2.05261E-1
-4.43649E-1,2.16568E-1
-4.08096E-1,2.19543E-1
-3.73764E-1,2.20428E-1
-3.39126E-1,2.18536E-1
-3.06839E-1,2.12005E-1
-2.75985E-1,2.03735E-1
-2.45719E-1,1.92817E-1
-2.15576E-1,1.78848E-1
-1.88468E-1,1.62338E-1
-1.63887E-1,1.44607E-1
-1.39701E-1,1.26083E-1
-1.17683E-1,1.07437E-1
-9.61647E-2,8.54072E-2
-7.76138E-2,6.22215E-2
-6.16817E-2,3.81412E-2
-4.52632E-2,1.33495E-2
-3.21121E-2,-1.74713E-2
-2.50892E-2,-5.18417E-2
-2.65655E-2,-8.58726E-2
-3.03878E-2,-1.16546E-1
-3.68118E-2,-1.49711E-1
-4.68444E-2,-1.84852E-1
-6.55517E-2,-2.22442E-1
-9.11407E-2,-2.54943E-1
-1.18652E-1,-2.83401E-1
-1.4888E-1,-3.11050E-1
-1.81488E-1,-3.34594E-1
-2.15026E-1,-3.55926E-1
-2.51586E-1,-3.74420E-1
-2.89550E-1,-3.85498E-1
-3.18603E-1,-3.98101E-1
-3.53576E-1,-4.01947E-1
-3.87542E-1,-4.03076E-1
-4.20105E-1,-4.00085E-1
-4.51293E-1,-3.93005E-1
-4.81384E-1,-3.82659E-1
-5.10528E-1,-3.68896E-1
-5.38024E-1,-3.51318E-1
-5.63049E-1,-3.31726E-1
-5.85205E-1,-3.11218E-1
END
BEGIN
-6.73828E-2,-6.61773E-2
-6.67572E-2,-5.89294E-2
-6.53610E-2,-5.32455E-2
-6.30073E-2,-4.77600E-2
-6.10694E-2,-4.30603E-2
-5.85517E-2,-3.86276E-2
-5.50003E-2,-3.49617E-2
-5.23605E-2,-3.29895E-2
-5.05256E-2,-3.15895E-2
-4.98123E-2,-3.04374E-2
-5.00679E-2,-2.85110E-2
-5.01823E-2,-2.58445E-2
-5.03807E-2,-2.27317E-2
-5.05790E-2,-1.96380E-2
-5.03234E-2,-1.55944E-2
-4.91218E-2,-1.19133E-2
-4.83284E-2,-8.97216E-3
-4.73041E-2,-5.86891E-3
-4.67701E-2,-2.11906E-3
-4.58641E-2,0.20618E-2
-4.40444E-2,0.56381E-2
-4.24232E-2,0.93135E-2
-4.07047E-2,1.17874E-2
-3.97758E-2,1.48277E-2
-3.86714E-2,1.86367E-2
-3.75251E-2,2.19955E-2
-3.63082E-2,2.54383E-2
-3.54843E-2,2.96001E-2
-3.38611E-2,3.38363E-2
-3.24363E-2,3.81431E-2
-3.06949E-2,4.27665E-2
-2.87246E-2,4.70199E-2
-2.74944E-2,5.19924E-2
-2.57492E-2,5.79757E-2
-2.28157E-2,6.41250E-2
-1.92184E-2,7.04078E-2
-1.52931E-2,7.67402E-2
-1.06430E-2,8.35418E-2
-4.69589E-3,9.01832E-2
0.17013E-2,9.59434E-2
0.78239E-2,1.01806E-1
1.43127E-2,1.08192E-1
2.19802E-2,1.15158E-1
3.08227E-2,1.22192E-1
0.40840E-1,1.29417E-1
0.52856E-1,1.36100E-1
0.66543E-1,1.41220E-1
0.81153E-1,1.45248E-1
0.96862E-1,1.48559E-1
1.13052E-1,1.49154E-1
1.29028E-1,1.49215E-1
1.45996E-1,1.48559E-1
1.64032E-1,1.46102E-1
1.82891E-1,1.41906E-1
2.02148E-1,1.35131E-1
2.21038E-1,1.25976E-1
2.39105E-1,1.14471E-1
2.56042E-1,1.01959E-1
2.73132E-1,0.87646E-1
2.89749E-1,0.71533E-1
3.05877E-1,0.53054E-1
3.19854E-1,0.31097E-1
3.32275E-1,0.07980E-1
3.41949E-1,-1.78222E-2
3.49014E-1,-4.46319E-2
3.53668E-1,-7.23724E-2
3.55133E-1,-1.01181E-1
3.53790E-1,-1.30538E-1
3.49197E-1,-1.60156E-1
3.42498E-1,-1.89971E-1
3.31848E-1,-2.2229E-1
3.13415E-1,-2.53173E-1
2.90405E-1,-2.77801E-1
2.67105E-1,-2.98584E-1
2.42553E-1,-3.19854E-1
2.13287E-1,-3.36105E-1
1.82312E-1,-3.47518E-1
1.51306E-1,-3.53439E-1
1.21383E-1,-3.54080E-1
0.95199E-1,-3.50936E-1
0.70938E-1,-3.45245E-1
0.50872E-1,-3.38470E-1
0.32653E-1,-3.32366E-1
0.13534E-1,-3.25332E-1
-4.45556E-3,-3.16314E-1
-2.04620E-2,-3.05557E-1
-3.32183E-2,-2.93594E-1
-4.45556E-2,-2.81707E-1
-5.24902E-2,-2.69393E-1
-5.84411E-2,-2.57614E-1
-6.26983E-2,-2.49313E-1
-6.82983E-2,-2.42263E-1
-7.53936E-2,-2.36114E-1
-8.26568E-2,-2.29385E-1
-9.01031E-2,-2.20214E-1
-9.36889E-2,-2.10907E-1
-9.61608E-2,-2.04269E-1
-9.99755E-2,-1.98654E-1
-1.04827E-1,-1.94000E-1
-1.11465E-1,-1.88201E-1
-1.18103E-1,-1.81274E-1
-1.23550E-1,-1.71600E-1
-1.28189E-1,-1.61834E-1
-1.30462E-1,-1.5065E-1
-1.29638E-1,-1.40502E-1
-1.28219E-1,-1.33209E-1
-1.27166E-1,-1.27059E-1
-1.27655E-1,-1.22116E-1
-1.29318E-1,-1.16134E-1
-1.30889E-1,-1.09039E-1
-1.31439E-1,-1.00799E-1
-1.29974E-1,-9.28802E-2
-1.26998E-1,-8.61663E-2
-1.23718E-1,-8.12072E-2
-1.21398E-1,-7.78503E-2
-1.20933E-1,-7.47909E-2
-1.20330E-1,-7.08618E-2
-1.20307E-1,-6.66885E-2
-1.20674E-1,-6.13861E-2
-1.19209E-1,-5.59310E-2
-1.17401E-1,-4.96673E-2
-1.13922E-1,-4.44335E-2
-1.09184E-1,-4.07333E-2
-1.05384E-1,-3.96347E-2
-1.03668E-1,-3.89709E-2
-1.03653E-1,-3.82461E-2
-1.03965E-1,-3.48892E-2
-1.03973E-1,-3.29361E-2
-1.02333E-1,-2.87780E-2
-1.01257E-1,-2.62908E-2
-1.00978E-1,-2.36244E-2
-1.00311E-1,-2.07290E-2
-9.91897E-2,-1.81503E-2
-9.85717E-2,-1.68380E-2
-9.97047E-2,-1.51138E-2
-1.00986E-1,-1.21154E-2
-1.02230E-1,-9.11331E-3
-1.04026E-1,-4.84466E-3
-1.05850E-1,0.00038E-2
-1.05674E-1,0.58822E-2
-1.05114E-1,1.18370E-2
-1.04694E-1,1.70135E-2
-1.04637E-1,2.28462E-2
-1.04541E-1,2.89382E-2
-1.04579E-1,3.55911E-2
-1.04858E-1,4.42657E-2
-1.03157E-1,5.34172E-2
-1.01768E-1,6.28738E-2
-9.83772E-2,7.39479E-2
-9.42268E-2,8.46290E-2
-8.97979E-2,9.57565E-2
-8.43200E-2,1.08760E-1
-7.61184E-2,1.22749E-1
-6.50787E-2,1.37222E-1
-5.06591E-2,1.49673E-1
-3.58886E-2,1.60560E-1
-1.98135E-2,1.72363E-1
-1.19781E-3,1.83471E-1
0.20507E-1,1.94145E-1
0.46508E-1,2.03231E-1
0.76675E-1,2.08343E-1
1.09100E-1,2.07565E-1
1.41464E-1,2.00622E-1
1.71752E-1,1.91513E-1
2.02163E-1,1.78787E-1
2.33551E-1,1.63009E-1
2.64480E-1,1.40884E-1
2.92877E-1,1.13266E-1
3.17581E-1,0.81298E-1
3.37646E-1,0.45517E-1
3.52157E-1,0.07324E-1
3.62899E-1,-3.17230E-2
3.70666E-1,-7.27539E-2
3.73092E-1,-1.16149E-1
3.70025E-1,-1.61544E-1
3.58413E-1,-2.05703E-1
3.41507E-1,-2.49206E-1
3.17062E-1,-2.88223E-1
2.88040E-1,-3.20800E-1
2.59338E-1,-3.47930E-1
2.30178E-1,-3.75351E-1
1.95770E-1,-4.01535E-1
1.55181E-1,-4.23507E-1
1.11526E-1,-4.36187E-1
0.69931E-1,-4.41360E-1
0.30365E-1,-4.41436E-1
-5.92041E-3,-4.36340E-1
-3.70178E-2,-4.30801E-1
-6.88171E-2,-4.26940E-1
-1.01776E-1,-4.18487E-1
-1.33483E-1,-4.07409E-1
-1.76422E-1,-3.84735E-1
-2.03125E-1,-3.61572E-1
-2.23083E-1,-3.35296E-1
-2.38372E-1,-3.09967E-1
-2.47528E-1,-2.87475E-1
-2.57537E-1,-2.68402E-1
-2.67883E-1,-2.49847E-1
-2.78778E-1,-2.30285E-1
-2.88879E-1,-2.07702E-1
-2.96112E-1,-1.81945E-1
END
BEGIN
-6.75430E-2,-7.79571E-2
-7.36923E-2,-7.05108E-2
-7.68356E-2,-5.83953E-2
-7.29599E-2,-4.62684E-2
-6.70089E-2,-4.04548E-2
-6.38465E-2,-3.65486E-2
-5.94902E-2,-3.14407E-2
-5.55687E-2,-2.89306E-2
-5.17997E-2,-2.75154E-2
-5.00869E-2,-2.67639E-2
-4.94384E-2,-2.528E-2
-4.81185E-2,-2.31742E-2
-4.71611E-2,-2.19306E-2
-4.73480E-2,-2.06108E-2
-4.79049E-2,-1.86080E-2
-4.88243E-2,-1.61552E-2
-4.99458E-2,-1.32560E-2
-5.20629E-2,-9.35745E-3
-5.28774E-2,-3.28445E-3
-5.19924E-2,0.37841E-2
-4.85267E-2,0.94642E-2
-4.46319E-2,1.34410E-2
-4.08916E-2,1.54895E-2
-3.96156E-2,1.69887E-2
-3.85646E-2,2.00328E-2
-3.77597E-2,2.30732E-2
-3.66554E-2,2.69165E-2
-3.51257E-2,3.08780E-2
-3.29513E-2,3.44886E-2
-3.17134E-2,3.78437E-2
-3.06873E-2,4.22058E-2
-2.91481E-2,4.64954E-2
-2.80494E-2,5.19695E-2
-2.56233E-2,5.80062E-2
-2.23312E-2,6.37512E-2
-1.88827E-2,6.97059E-2
-1.48086E-2,7.53860E-2
-1.08070E-2,8.12034E-2
-6.51931E-3,8.75320E-2
-1.56402E-3,9.41658E-2
0.39672E-2,1.01718E-1
1.14517E-2,1.09909E-1
2.09045E-2,1.16966E-1
3.07846E-2,1.22711E-1
0.40840E-1,1.28532E-1
0.51956E-1,1.33956E-1
0.63758E-1,1.38931E-1
0.76721E-1,1.43898E-1
0.91812E-1,1.48849E-1
1.08810E-1,1.51184E-1
1.26297E-1,1.51962E-1
1.45126E-1,1.50604E-1
1.63467E-1,1.46240E-1
1.80969E-1,1.40747E-1
1.98913E-1,1.34887E-1
2.16918E-1,1.27227E-1
2.35595E-1,1.18133E-1
2.55249E-1,1.06658E-1
2.75116E-1,0.9198E-1
2.93075E-1,0.72341E-1
3.07708E-1,0.50582E-1
3.18847E-1,0.28732E-1
3.29315E-1,0.08071E-1
3.40042E-1,-1.47399E-2
3.50997E-1,-4.01458E-2
3.57223E-1,-7.22808E-2
3.57681E-1,-1.03958E-1
3.52737E-1,-1.34170E-1
3.46923E-1,-1.61987E-1
3.37905E-1,-1.89056E-1
3.30596E-1,-2.18017E-1
3.15948E-1,-2.49679E-1
2.94967E-1,-2.77694E-1
2.70141E-1,-3.00796E-1
2.43667E-1,-3.21212E-1
2.13684E-1,-3.36547E-1
1.85379E-1,-3.45764E-1
1.57562E-1,-3.53424E-1
1.29470E-1,-3.57894E-1
1.01486E-1,-3.59115E-1
0.74096E-1,-3.56750E-1
0.48645E-1,-3.50265E-1
0.26535E-1,-3.41095E-1
0.07934E-1,-3.29879E-1
-6.77490E-3,-3.20144E-1
-2.0401E-2,-3.12088E-1
-3.66210E-2,-3.04611E-1
-5.31311E-2,-2.92984E-1
-6.63147E-2,-2.77465E-1
-7.38525E-2,-2.61489E-1
-7.72552E-2,-2.47055E-1
-7.83844E-2,-2.37396E-1
-8.06121E-2,-2.31216E-1
-8.41674E-2,-2.25891E-1
-9.04541E-2,-2.20077E-1
-9.60235E-2,-2.12417E-1
-1.00357E-1,-2.04757E-1
-1.03836E-1,-1.97204E-1
-1.06658E-1,-1.90856E-1
-1.10382E-1,-1.84692E-1
-1.13906E-1,-1.79061E-1
-1.17187E-1,-1.73522E-1
-1.23138E-1,-1.67526E-1
-1.2854E-1,-1.58508E-1
-1.31454E-1,-1.48193E-1
-1.32293E-1,-1.38748E-1
-1.31179E-1,-1.30249E-1
-1.30859E-1,-1.23840E-1
-1.32141E-1,-1.18087E-1
-1.32934E-1,-1.10473E-1
-1.32812E-1,-1.02996E-1
-1.31927E-1,-9.55810E-2
-1.29440E-1,-8.83026E-2
-1.26510E-1,-8.39614E-2
-1.24458E-1,-8.06121E-2
-1.24382E-1,-7.74917E-2
-1.24961E-1,-7.36846E-2
-1.25778E-1,-6.80618E-2
-1.25190E-1,-6.17675E-2
-1.23092E-1,-5.65490E-2
-1.21871E-1,-5.10788E-2
-1.19880E-1,-4.54177E-2
-1.16386E-1,-4.05578E-2
-1.13052E-1,-3.74984E-2
-1.11389E-1,-3.43627E-2
-1.09840E-1,-3.11737E-2
-1.07681E-1,-2.67028E-2
-1.04385E-1,-2.29263E-2
-1.00433E-1,-2.08587E-2
-9.75112E-2,-2.03361E-2
-9.63287E-2,-2.01644E-2
-9.66491E-2,-1.98364E-2
-9.74769E-2,-1.74789E-2
-9.80720E-2,-1.51062E-2
-9.87587E-2,-1.16996E-2
-9.83429E-2,-7.91168E-3
-9.72557E-2,-4.81033E-3
-9.70802E-2,-2.55584E-3
-9.81483E-2,0.02822E-2
-9.93804E-2,0.41046E-2
-1.00364E-1,0.85601E-2
-1.02230E-1,1.38435E-2
-1.03557E-1,2.13813E-2
-1.02958E-1,2.92968E-2
-1.01074E-1,3.66210E-2
-9.93194E-2,4.35028E-2
-9.78126E-2,4.96292E-2
-9.82894E-2,5.65376E-2
-9.90104E-2,6.63795E-2
-9.84993E-2,7.89375E-2
-9.56840E-2,9.39254E-2
-8.81729E-2,1.10305E-1
-7.68051E-2,1.24229E-1
-6.47735E-2,1.36215E-1
-5.20706E-2,1.46980E-1
-3.98559E-2,1.58409E-1
-2.60086E-2,1.72569E-1
-7.19451E-3,1.88186E-1
0.17547E-1,2.02133E-1
0.48767E-1,2.12402E-1
0.83465E-1,2.14996E-1
1.16668E-1,2.10998E-1
1.48101E-1,2.02346E-1
1.77551E-1,1.92550E-1
2.09137E-1,1.80603E-1
2.42782E-1,1.63269E-1
2.74749E-1,1.38275E-1
3.02124E-1,1.07009E-1
3.22967E-1,0.72219E-1
3.39187E-1,0.37216E-1
3.52951E-1,0.01266E-1
3.638E-1,-3.76892E-2
3.69461E-1,-7.82470E-2
3.71002E-1,-1.19415E-1
3.68133E-1,-1.64199E-1
3.57284E-1,-2.08435E-1
3.39386E-1,-2.51205E-1
3.16192E-1,-2.8862E-1
2.90084E-1,-3.22586E-1
2.63229E-1,-3.51486E-1
2.33886E-1,-3.83239E-1
1.96060E-1,-4.11438E-1
1.53183E-1,-4.30481E-1
1.12716E-1,-4.42993E-1
0.72647E-1,-4.51721E-1
0.29800E-1,-4.57901E-1
-1.48162E-2,-4.53414E-1
-5.27648E-2,-4.43573E-1
-8.86840E-2,-4.31427E-1
-1.19018E-1,-4.15466E-1
-1.46331E-1,-3.99963E-1
-1.73156E-1,-3.92456E-1
-2.01446E-1,-3.73046E-1
-2.28118E-1,-3.48480E-1
-2.48565E-1,-3.20526E-1
-2.62420E-1,-2.91564E-1
-2.70355E-1,-2.64190E-1
-2.74139E-1,-2.42279E-1
-2.78137E-1,-2.24426E-1
-2.84973E-1,-2.08343E-1
-2.94189E-1,-1.89575E-1
END
BEGIN
6.22131E-1,-7.15728E-1
5.98449E-1,-7.26562E-1
5.78704E-1,-7.34527E-1
5.64392E-1,-7.44293E-1
5.48553E-1,-7.57965E-1
5.29174E-1,-7.71331E-1
5.10589E-1,-7.83508E-1
4.90997E-1,-7.97546E-1
4.70672E-1,-8.11218E-1
4.47906E-1,-8.25592E-1
4.23858E-1,-8.37646E-1
4.00756E-1,-8.48602E-1
3.76281E-1,-8.60015E-1
3.51928E-1,-8.69506E-1
3.26385E-1,-8.77716E-1
3.01513E-1,-8.84887E-1
2.76306E-1,-8.89556E-1
2.49847E-1,-8.93676E-1
2.24914E-1,-8.9505E-1
2.02819E-1,-8.94500E-1
1.80084E-1,-8.96698E-1
1.56768E-1,-8.99139E-1
1.31103E-1,-9.01153E-1
1.04156E-1,-9.02130E-1
0.77728E-1,-9.00939E-1
0.50293E-1,-8.99566E-1
0.22399E-1,-8.95416E-1
-4.85229E-3,-8.92517E-1
-3.28369E-2,-8.87908E-1
-6.15844E-2,-8.82690E-1
-8.92944E-2,-8.75518E-1
-1.18042E-1,-8.66821E-1
-1.46911E-1,-8.56201E-1
-1.74255E-1,-8.44421E-1
-2.02270E-1,-8.30932E-1
-2.30529E-1,-8.16345E-1
-2.59582E-1,-8.00048E-1
-2.89001E-1,-7.81005E-1
-3.17382E-1,-7.60192E-1
-3.45397E-1,-7.38037E-1
-3.72131E-1,-7.14599E-1
-3.98071E-1,-6.88842E-1
-4.23156E-1,-6.62536E-1
-4.46167E-1,-6.34460E-1
-4.67651E-1,-6.04370E-1
-4.88037E-1,-5.72692E-1
-5.05065E-1,-5.39062E-1
-5.19775E-1,-5.05859E-1
-5.3479E-1,-4.71191E-1
-5.46997E-1,-4.32189E-1
-5.57861E-1,-3.91876E-1
-5.66284E-1,-3.48907E-1
-5.71228E-1,-3.01818E-1
-5.72570E-1,-2.53173E-1
-5.70068E-1,-2.02331E-1
-5.62561E-1,-1.52282E-1
-5.49438E-1,-1.00769E-1
-5.32470E-1,-5.06591E-2
-5.11810E-1,-1.52587E-4
-4.84649E-1,0.50445E-1
-4.49340E-1,0.98831E-1
-4.07684E-1,1.44210E-1
-3.59497E-1,1.84509E-1
-3.08410E-1,2.18856E-1
-2.5383E-1,2.51449E-1
-1.91177E-1,2.80502E-1
-1.23611E-1,3.00491E-1
-5.40313E-2,3.09646E-1
0.12756E-1,3.12622E-1
0.80383E-1,3.08624E-1
1.46179E-1,2.99926E-1
2.13958E-1,2.82501E-1
2.77252E-1,2.54577E-1
3.33557E-1,2.18719E-1
3.84429E-1,1.81213E-1
4.34906E-1,1.37085E-1
4.77691E-1,0.85235E-1
5.13580E-1,0.28137E-1
5.39337E-1,-3.25622E-2
5.56732E-1,-9.24987E-2
5.67993E-1,-1.52893E-1
5.71441E-1,-2.10723E-1
5.70678E-1,-2.65564E-1
5.65338E-1,-3.19854E-1
5.54382E-1,-3.70056E-1
5.38818E-1,-4.16198E-1
5.22888E-1,-4.58282E-1
5.04425E-1,-4.98016E-1
4.81994E-1,-5.36956E-1
4.57702E-1,-5.71563E-1
4.30725E-1,-6.02569E-1
4.0448E-1,-6.29394E-1
3.78967E-1,-6.54235E-1
3.52233E-1,-6.77459E-1
3.26324E-1,-7.02148E-1
2.96722E-1,-7.23449E-1
2.66357E-1,-7.41363E-1
2.36114E-1,-7.57537E-1
2.06237E-1,-7.69012E-1
1.75994E-1,-7.80700E-1
1.46453E-1,-7.88238E-1
1.16943E-1,-7.92694E-1
0.89965E-1,-7.95410E-1
0.64727E-1,-7.97546E-1
0.37262E-1,-8.00476E-1
0.09643E-1,-7.99896E-1
-1.65405E-2,-7.98950E-1
-4.06799E-2,-7.98248E-1
-6.65283E-2,-7.99896E-1
-9.48181E-2,-8.00598E-1
-1.22589E-1,-7.98828E-1
-1.48803E-1,-7.96752E-1
-1.73950E-1,-7.94738E-1
-1.98669E-1,-7.94616E-1
-2.25769E-1,-7.92236E-1
-2.50488E-1,-7.86438E-1
-2.73498E-1,-7.79846E-1
-2.92724E-1,-7.72583E-1
-3.11828E-1,-7.65747E-1
-3.29467E-1,-7.56042E-1
-3.44909E-1,-7.46154E-1
-3.60229E-1,-7.37670E-1
-3.75366E-1,-7.28332E-1
-3.89526E-1,-7.19421E-1
-4.04541E-1,-7.11486E-1
-4.23217E-1,-7.04162E-1
-4.42627E-1,-6.94763E-1
-4.62402E-1,-6.83105E-1
-4.83398E-1,-6.69982E-1
-5.03173E-1,-6.54968E-1
-5.22094E-1,-6.40319E-1
-5.41992E-1,-6.23596E-1
-5.60241E-1,-6.06262E-1
-5.76721E-1,-5.87524E-1
-5.93261E-1,-5.67382E-1
-6.08032E-1,-5.46997E-1
-6.22253E-1,-5.24658E-1
-6.34399E-1,-5.02197E-1
-6.47094E-1,-4.79614E-1
-6.58935E-1,-4.54834E-1
-6.69128E-1,-4.29931E-1
-6.79016E-1,-4.02893E-1
-6.88049E-1,-3.75488E-1
-6.95861E-1,-3.45336E-1
-7.00195E-1,-3.13903E-1
-7.02514E-1,-2.83569E-1
-7.04864E-1,-2.52899E-1
-7.05474E-1,-2.21771E-1
-7.04315E-1,-1.88293E-1
-6.99981E-1,-1.52740E-1
-6.91284E-1,-1.17004E-1
-6.79229E-1,-8.30383E-2
-6.64856E-1,-4.84314E-2
-6.45263E-1,-1.31835E-2
-6.19873E-1,0.19683E-1
-5.91796E-1,0.49652E-1
-5.60791E-1,0.76049E-1
-5.27069E-1,1.00036E-1
-4.89929E-1,1.21063E-1
-4.50454E-1,1.38046E-1
-4.09042E-1,1.49993E-1
-3.67553E-1,1.57959E-1
-3.24478E-1,1.60415E-1
-2.83554E-1,1.55471E-1
-2.48031E-1,1.46926E-1
-2.16369E-1,1.37489E-1
-1.85661E-1,1.26609E-1
-1.57318E-1,1.12793E-1
-1.31263E-1,0.94291E-1
-1.11564E-1,7.53517E-2
-9.44328E-2,5.65681E-2
-7.86552E-2,3.75785E-2
-6.42585E-2,1.54228E-2
-5.49392E-2,-8.01849E-3
-4.59137E-2,-2.82516E-2
-3.67317E-2,-5.21736E-2
-2.85797E-2,-7.68890E-2
-2.37045E-2,-1.06636E-1
-2.25677E-2,-1.36329E-1
-2.58255E-2,-1.64512E-1
-2.70080E-2,-1.90727E-1
-2.87551E-2,-2.21694E-1
-3.64379E-2,-2.56683E-1
-5.08880E-2,-2.89230E-1
-6.88018E-2,-3.19519E-1
-8.92944E-2,-3.48815E-1
-1.15753E-1,-3.77319E-1
-1.45690E-1,-3.97369E-1
-1.73095E-1,-4.14764E-1
-2.03613E-1,-4.30450E-1
-2.34375E-1,-4.41650E-1
-2.62817E-1,-4.48211E-1
-2.95013E-1,-4.54956E-1
-3.27819E-1,-4.57885E-1
-3.60595E-1,-4.57122E-1
-3.91418E-1,-4.53552E-1
-4.21966E-1,-4.47692E-1
-4.51873E-1,-4.40765E-1
-4.80896E-1,-4.30725E-1
-5.07812E-1,-4.19006E-1
-5.32836E-1,-4.06189E-1
END

