1



                                 *********************************************

                                    NUMERICAL ELECTROMAGNETICS CODE (NEC-2D)

                                 *********************************************




                                     - - - - COMMENTS - - - -


                          Example 1 :	Dipole in free space 	' Comment cards                          
                          See GetStarted.txt                                                         
                          							' End of comment                                                    




                                 - - - STRUCTURE SPECIFICATION - - -

                                     COORDINATES MUST BE INPUT IN
                                     METERS OR BE SCALED TO METERS
                                     BEFORE STRUCTURE INPUT IS ENDED


  WIRE                                                                               NO. OF    FIRST  LAST     TAG
  NO.        X1         Y1         Z1          X2         Y2         Z2      RADIUS   SEG.     SEG.   SEG.     NO.
     1    0.00000   -0.24180    0.00000     0.00000    0.24180    0.00000    0.00010      9        1     9       1
      THE STRUCTURE HAS BEEN MOVED, MOVE DATA CARD IS -
        0    0  45.00000   0.00000   0.00000   0.00000   0.00000   0.00000   1.00000
      THE STRUCTURE HAS BEEN MOVED, MOVE DATA CARD IS -
        0    0   0.00000   0.00000   0.00000   0.40000   0.00000   0.00000   1.00000
      THE STRUCTURE HAS BEEN MOVED, MOVE DATA CARD IS -
        1    2   0.00000   0.00000 120.00000   0.00000   0.00000   0.00000   1.00000
      THE STRUCTURE HAS BEEN MOVED, MOVE DATA CARD IS -
        3    3   0.00000   0.00000   0.00000   0.00000   0.00000   0.80000   1.00000

   TOTAL SEGMENTS USED=  108     NO. SEG. IN A SYMMETRIC CELL=  108     SYMMETRY FLAG=  0


         - MULTIPLE WIRE JUNCTIONS -
 JUNCTION    SEGMENTS  (- FOR END 1, + FOR END 2)
  NONE




                                 - - - - SEGMENTATION DATA - - - -

                                        COORDINATES IN METERS

                         I+ AND I- INDICATE THE SEGMENTS BEFORE AND AFTER I


  SEG.   COORDINATES OF SEG. CENTER     SEG.     ORIENTATION ANGLES    WIRE    CONNECTION DATA   TAG
  NO.       X         Y         Z       LENGTH     ALPHA     BETA      RADIUS    I-   I    I+    NO.
     1   0.40000  -0.15198  -0.15198   0.05373   45.00000  90.00000   0.00010     0    1    2      1
     2   0.40000  -0.11399  -0.11399   0.05373   45.00000  90.00000   0.00010     1    2    3      1
     3   0.40000  -0.07599  -0.07599   0.05373   45.00000  90.00000   0.00010     2    3    4      1
     4   0.40000  -0.03800  -0.03800   0.05373   45.00000  90.00000   0.00010     3    4    5      1
     5   0.40000   0.00000   0.00000   0.05373   45.00000  90.00000   0.00010     4    5    6      1
     6   0.40000   0.03800   0.03800   0.05373   45.00000  90.00000   0.00010     5    6    7      1
     7   0.40000   0.07599   0.07599   0.05373   45.00000  90.00000   0.00010     6    7    8      1
     8   0.40000   0.11399   0.11399   0.05373   45.00000  90.00000   0.00010     7    8    9      1
     9   0.40000   0.15198   0.15198   0.05373   45.00000  90.00000   0.00010     8    9    0      1
    10  -0.06838   0.42240  -0.15198   0.05373   45.00000-150.00000   0.00010     0   10   11      2
    11  -0.10129   0.40340  -0.11399   0.05373   45.00000-150.00000   0.00010    10   11   12      2
    12  -0.13419   0.38441  -0.07599   0.05373   45.00000-150.00000   0.00010    11   12   13      2
    13  -0.16710   0.36541  -0.03800   0.05373   45.00000-150.00000   0.00010    12   13   14      2
    14  -0.20000   0.34641   0.00000   0.05373   45.00000-150.00000   0.00010    13   14   15      2
    15  -0.23290   0.32741   0.03800   0.05373   45.00000-150.00000   0.00010    14   15   16      2
    16  -0.26581   0.30841   0.07599   0.05373   45.00000-150.00000   0.00010    15   16   17      2
    17  -0.29871   0.28942   0.11399   0.05373   45.00000-150.00000   0.00010    16   17   18      2
    18  -0.33162   0.27042   0.15198   0.05373   45.00000-150.00000   0.00010    17   18    0      2
    19  -0.33162  -0.27042  -0.15198   0.05373   45.00000 -30.00000   0.00010     0   19   20      3
    20  -0.29871  -0.28942  -0.11399   0.05373   45.00000 -30.00000   0.00010    19   20   21      3
    21  -0.26581  -0.30841  -0.07599   0.05373   45.00000 -30.00000   0.00010    20   21   22      3
    22  -0.23290  -0.32741  -0.03800   0.05373   45.00000 -30.00000   0.00010    21   22   23      3
    23  -0.20000  -0.34641   0.00000   0.05373   45.00000 -30.00000   0.00010    22   23   24      3
    24  -0.16710  -0.36541   0.03800   0.05373   45.00000 -30.00000   0.00010    23   24   25      3
    25  -0.13419  -0.38441   0.07599   0.05373   45.00000 -30.00000   0.00010    24   25   26      3
    26  -0.10129  -0.40340   0.11399   0.05373   45.00000 -30.00000   0.00010    25   26   27      3
    27  -0.06838  -0.42240   0.15198   0.05373   45.00000 -30.00000   0.00010    26   27    0      3
    28   0.40000  -0.15198   0.64802   0.05373   45.00000  90.00000   0.00010     0   28   29      4
    29   0.40000  -0.11399   0.68601   0.05373   45.00000  90.00000   0.00010    28   29   30      4
    30   0.40000  -0.07599   0.72401   0.05373   45.00000  90.00000   0.00010    29   30   31      4
    31   0.40000  -0.03800   0.76200   0.05373   45.00000  90.00000   0.00010    30   31   32      4
    32   0.40000   0.00000   0.80000   0.05373   45.00000  90.00000   0.00010    31   32   33      4
    33   0.40000   0.03800   0.83800   0.05373   45.00000  90.00000   0.00010    32   33   34      4
    34   0.40000   0.07599   0.87599   0.05373   45.00000  90.00000   0.00010    33   34   35      4
    35   0.40000   0.11399   0.91399   0.05373   45.00000  90.00000   0.00010    34   35   36      4
    36   0.40000   0.15198   0.95198   0.05373   45.00000  90.00000   0.00010    35   36    0      4
    37  -0.06838   0.42240   0.64802   0.05373   45.00000-150.00000   0.00010     0   37   38      5
    38  -0.10129   0.40340   0.68601   0.05373   45.00000-150.00000   0.00010    37   38   39      5
    39  -0.13419   0.38441   0.72401   0.05373   45.00000-150.00000   0.00010    38   39   40      5
    40  -0.16710   0.36541   0.76200   0.05373   45.00000-150.00000   0.00010    39   40   41      5
    41  -0.20000   0.34641   0.80000   0.05373   45.00000-150.00000   0.00010    40   41   42      5
    42  -0.23290   0.32741   0.83800   0.05373   45.00000-150.00000   0.00010    41   42   43      5
    43  -0.26581   0.30841   0.87599   0.05373   45.00000-150.00000   0.00010    42   43   44      5
    44  -0.29871   0.28942   0.91399   0.05373   45.00000-150.00000   0.00010    43   44   45      5
    45  -0.33162   0.27042   0.95198   0.05373   45.00000-150.00000   0.00010    44   45    0      5
    46  -0.33162  -0.27042   0.64802   0.05373   45.00000 -30.00000   0.00010     0   46   47      6
    47  -0.29871  -0.28942   0.68601   0.05373   45.00000 -30.00000   0.00010    46   47   48      6
    48  -0.26581  -0.30841   0.72401   0.05373   45.00000 -30.00000   0.00010    47   48   49      6
    49  -0.23290  -0.32741   0.76200   0.05373   45.00000 -30.00000   0.00010    48   49   50      6
    50  -0.20000  -0.34641   0.80000   0.05373   45.00000 -30.00000   0.00010    49   50   51      6
    51  -0.16710  -0.36541   0.83800   0.05373   45.00000 -30.00000   0.00010    50   51   52      6
    52  -0.13419  -0.38441   0.87599   0.05373   45.00000 -30.00000   0.00010    51   52   53      6
    53  -0.10129  -0.40340   0.91399   0.05373   45.00000 -30.00000   0.00010    52   53   54      6
    54  -0.06838  -0.42240   0.95198   0.05373   45.00000 -30.00000   0.00010    53   54    0      6
    55   0.40000  -0.15198   1.44802   0.05373   45.00000  90.00000   0.00010     0   55   56      7
    56   0.40000  -0.11399   1.48601   0.05373   45.00000  90.00000   0.00010    55   56   57      7
    57   0.40000  -0.07599   1.52401   0.05373   45.00000  90.00000   0.00010    56   57   58      7
    58   0.40000  -0.03800   1.56200   0.05373   45.00000  90.00000   0.00010    57   58   59      7
    59   0.40000   0.00000   1.60000   0.05373   45.00000  90.00000   0.00010    58   59   60      7
    60   0.40000   0.03800   1.63800   0.05373   45.00000  90.00000   0.00010    59   60   61      7
    61   0.40000   0.07599   1.67599   0.05373   45.00000  90.00000   0.00010    60   61   62      7
    62   0.40000   0.11399   1.71399   0.05373   45.00000  90.00000   0.00010    61   62   63      7
    63   0.40000   0.15198   1.75198   0.05373   45.00000  90.00000   0.00010    62   63    0      7
    64  -0.06838   0.42240   1.44802   0.05373   45.00000-150.00000   0.00010     0   64   65      8
    65  -0.10129   0.40340   1.48601   0.05373   45.00000-150.00000   0.00010    64   65   66      8
    66  -0.13419   0.38441   1.52401   0.05373   45.00000-150.00000   0.00010    65   66   67      8
    67  -0.16710   0.36541   1.56200   0.05373   45.00000-150.00000   0.00010    66   67   68      8
    68  -0.20000   0.34641   1.60000   0.05373   45.00000-150.00000   0.00010    67   68   69      8
    69  -0.23290   0.32741   1.63800   0.05373   45.00000-150.00000   0.00010    68   69   70      8
    70  -0.26581   0.30841   1.67599   0.05373   45.00000-150.00000   0.00010    69   70   71      8
    71  -0.29871   0.28942   1.71399   0.05373   45.00000-150.00000   0.00010    70   71   72      8
    72  -0.33162   0.27042   1.75198   0.05373   45.00000-150.00000   0.00010    71   72    0      8
    73  -0.33162  -0.27042   1.44802   0.05373   45.00000 -30.00000   0.00010     0   73   74      9
    74  -0.29871  -0.28942   1.48601   0.05373   45.00000 -30.00000   0.00010    73   74   75      9
    75  -0.26581  -0.30841   1.52401   0.05373   45.00000 -30.00000   0.00010    74   75   76      9
    76  -0.23290  -0.32741   1.56200   0.05373   45.00000 -30.00000   0.00010    75   76   77      9
    77  -0.20000  -0.34641   1.60000   0.05373   45.00000 -30.00000   0.00010    76   77   78      9
    78  -0.16710  -0.36541   1.63800   0.05373   45.00000 -30.00000   0.00010    77   78   79      9
    79  -0.13419  -0.38441   1.67599   0.05373   45.00000 -30.00000   0.00010    78   79   80      9
    80  -0.10129  -0.40340   1.71399   0.05373   45.00000 -30.00000   0.00010    79   80   81      9
    81  -0.06838  -0.42240   1.75198   0.05373   45.00000 -30.00000   0.00010    80   81    0      9
    82   0.40000  -0.15198   2.24802   0.05373   45.00000  90.00000   0.00010     0   82   83     10
    83   0.40000  -0.11399   2.28601   0.05373   45.00000  90.00000   0.00010    82   83   84     10
    84   0.40000  -0.07599   2.32401   0.05373   45.00000  90.00000   0.00010    83   84   85     10
    85   0.40000  -0.03800   2.36200   0.05373   45.00000  90.00000   0.00010    84   85   86     10
    86   0.40000   0.00000   2.40000   0.05373   45.00000  90.00000   0.00010    85   86   87     10
    87   0.40000   0.03800   2.43800   0.05373   45.00000  90.00000   0.00010    86   87   88     10
    88   0.40000   0.07599   2.47599   0.05373   45.00000  90.00000   0.00010    87   88   89     10
    89   0.40000   0.11399   2.51399   0.05373   45.00000  90.00000   0.00010    88   89   90     10
    90   0.40000   0.15198   2.55198   0.05373   45.00000  90.00000   0.00010    89   90    0     10
    91  -0.06838   0.42240   2.24802   0.05373   45.00000-150.00000   0.00010     0   91   92     11
    92  -0.10129   0.40340   2.28601   0.05373   45.00000-150.00000   0.00010    91   92   93     11
    93  -0.13419   0.38441   2.32401   0.05373   45.00000-150.00000   0.00010    92   93   94     11
    94  -0.16710   0.36541   2.36200   0.05373   45.00000-150.00000   0.00010    93   94   95     11
    95  -0.20000   0.34641   2.40000   0.05373   45.00000-150.00000   0.00010    94   95   96     11
    96  -0.23290   0.32741   2.43800   0.05373   45.00000-150.00000   0.00010    95   96   97     11
    97  -0.26581   0.30841   2.47599   0.05373   45.00000-150.00000   0.00010    96   97   98     11
    98  -0.29871   0.28942   2.51399   0.05373   45.00000-150.00000   0.00010    97   98   99     11
    99  -0.33162   0.27042   2.55198   0.05373   45.00000-150.00000   0.00010    98   99    0     11
   100  -0.33162  -0.27042   2.24802   0.05373   45.00000 -30.00000   0.00010     0  100  101     12
   101  -0.29871  -0.28942   2.28601   0.05373   45.00000 -30.00000   0.00010   100  101  102     12
   102  -0.26581  -0.30841   2.32401   0.05373   45.00000 -30.00000   0.00010   101  102  103     12
   103  -0.23290  -0.32741   2.36200   0.05373   45.00000 -30.00000   0.00010   102  103  104     12
   104  -0.20000  -0.34641   2.40000   0.05373   45.00000 -30.00000   0.00010   103  104  105     12
   105  -0.16710  -0.36541   2.43800   0.05373   45.00000 -30.00000   0.00010   104  105  106     12
   106  -0.13419  -0.38441   2.47599   0.05373   45.00000 -30.00000   0.00010   105  106  107     12
   107  -0.10129  -0.40340   2.51399   0.05373   45.00000 -30.00000   0.00010   106  107  108     12
   108  -0.06838  -0.42240   2.55198   0.05373   45.00000 -30.00000   0.00010   107  108    0     12






 ***** DATA CARD NO.  1   EX   0     1     5     0  1.00000E+00  0.00000E+00  0.00000E+00  0.00000E+00  0.00000E+00  0.00000E+00
 ***** DATA CARD NO.  2   EX   0     2     5     0  1.00000E+00  0.00000E+00  0.00000E+00  0.00000E+00  0.00000E+00  0.00000E+00
 ***** DATA CARD NO.  3   EX   0     3     5     0  1.00000E+00  0.00000E+00  0.00000E+00  0.00000E+00  0.00000E+00  0.00000E+00
 ***** DATA CARD NO.  4   EX   0     4     5     0  1.00000E+00  0.00000E+00  0.00000E+00  0.00000E+00  0.00000E+00  0.00000E+00
 ***** DATA CARD NO.  5   EX   0     5     5     0  1.00000E+00  0.00000E+00  0.00000E+00  0.00000E+00  0.00000E+00  0.00000E+00
 ***** DATA CARD NO.  6   EX   0     6     5     0  1.00000E+00  0.00000E+00  0.00000E+00  0.00000E+00  0.00000E+00  0.00000E+00
 ***** DATA CARD NO.  7   EX   0     7     5     0  1.00000E+00  0.00000E+00  0.00000E+00  0.00000E+00  0.00000E+00  0.00000E+00
 ***** DATA CARD NO.  8   EX   0     8     5     0  1.00000E+00  0.00000E+00  0.00000E+00  0.00000E+00  0.00000E+00  0.00000E+00
 ***** DATA CARD NO.  9   EX   0     9     5     0  1.00000E+00  0.00000E+00  0.00000E+00  0.00000E+00  0.00000E+00  0.00000E+00
 ***** DATA CARD NO. 10   EX   0    10     5     0  1.00000E+00  0.00000E+00  0.00000E+00  0.00000E+00  0.00000E+00  0.00000E+00
 ***** DATA CARD NO. 11   EX   0    11     5     0  1.00000E+00  0.00000E+00  0.00000E+00  0.00000E+00  0.00000E+00  0.00000E+00
 ***** DATA CARD NO. 12   EX   0    12     5     0  1.00000E+00  0.00000E+00  0.00000E+00  0.00000E+00  0.00000E+00  0.00000E+00
 ***** DATA CARD NO. 13   FR   0     1     0     0  3.00000E+02  0.00000E+00  0.00000E+00  0.00000E+00  0.00000E+00  0.00000E+00
 ***** DATA CARD NO. 14   RP   0   181     1  1000 -1.80000E+02  0.00000E+00  2.00000E+00  1.00000E+00  0.00000E+00  0.00000E+00




                                 - - - - - - FREQUENCY - - - - - -

                                    FREQUENCY= 3.0000E+02 MHZ
                                    WAVELENGTH= 9.9933E-01 METERS




                    APPROXIMATE INTEGRATION EMPLOYED FOR SEGMENTS MORE THAN   1.000 WAVELENGTHS APART



                               - - - STRUCTURE IMPEDANCE LOADING - - -

                                   THIS STRUCTURE IS NOT LOADED



                                  - - - ANTENNA ENVIRONMENT - - -

                                            FREE SPACE



                                - - - MATRIX TIMING - - -

                        FILL=    0.031 SEC.,  FACTOR=    0.016 SEC.



                                          - - - ANTENNA INPUT PARAMETERS - - -

   TAG   SEG.    VOLTAGE (VOLTS)         CURRENT (AMPS)         IMPEDANCE (OHMS)        ADMITTANCE (MHOS)      POWER
   NO.   NO.    REAL        IMAG.       REAL        IMAG.       REAL        IMAG.       REAL        IMAG.     (WATTS)
     1     5 1.00000E+00 0.00000E+00 1.94150E-02 4.13487E-03 4.92718E+01-1.04936E+01 1.94150E-02 4.13487E-03 9.70748E-03
     2    14 1.00000E+00 0.00000E+00 1.94150E-02 4.13487E-03 4.92718E+01-1.04936E+01 1.94150E-02 4.13487E-03 9.70748E-03
     3    23 1.00000E+00 0.00000E+00 1.94150E-02 4.13487E-03 4.92718E+01-1.04936E+01 1.94150E-02 4.13487E-03 9.70748E-03
     4    32 1.00000E+00 0.00000E+00 2.50049E-02 4.92011E-03 3.85015E+01-7.57579E+00 2.50049E-02 4.92011E-03 1.25024E-02
     5    41 1.00000E+00 0.00000E+00 2.50049E-02 4.92011E-03 3.85015E+01-7.57579E+00 2.50049E-02 4.92011E-03 1.25024E-02
     6    50 1.00000E+00 0.00000E+00 2.50049E-02 4.92011E-03 3.85015E+01-7.57579E+00 2.50049E-02 4.92011E-03 1.25024E-02
     7    59 1.00000E+00 0.00000E+00 2.50049E-02 4.92011E-03 3.85015E+01-7.57579E+00 2.50049E-02 4.92011E-03 1.25024E-02
     8    68 1.00000E+00 0.00000E+00 2.50049E-02 4.92011E-03 3.85015E+01-7.57579E+00 2.50049E-02 4.92011E-03 1.25024E-02
     9    77 1.00000E+00 0.00000E+00 2.50049E-02 4.92011E-03 3.85015E+01-7.57579E+00 2.50049E-02 4.92011E-03 1.25024E-02
    10    86 1.00000E+00 0.00000E+00 1.94150E-02 4.13487E-03 4.92718E+01-1.04936E+01 1.94150E-02 4.13487E-03 9.70748E-03
    11    95 1.00000E+00 0.00000E+00 1.94150E-02 4.13487E-03 4.92718E+01-1.04936E+01 1.94150E-02 4.13487E-03 9.70748E-03
    12   104 1.00000E+00 0.00000E+00 1.94150E-02 4.13487E-03 4.92718E+01-1.04936E+01 1.94150E-02 4.13487E-03 9.70748E-03



                             - - - CURRENTS AND LOCATION - - -

                                 DISTANCES IN WAVELENGTHS


  SEG.  TAG    COORD. OF SEG. CENTER     SEG.            - - - CURRENT (AMPS) - - -
  NO.   NO.     X        Y        Z      LENGTH     REAL        IMAG.       MAG.        PHASE
     1    1   0.4003  -0.1521  -0.1521  0.05377   3.8230E-03  6.2986E-04  3.8746E-03    9.356
     2    1   0.4003  -0.1141  -0.1141  0.05377   1.0259E-02  1.7813E-03  1.0413E-02    9.850
     3    1   0.4003  -0.0760  -0.0760  0.05377   1.5211E-02  2.8048E-03  1.5467E-02   10.448
     4    1   0.4003  -0.0380  -0.0380  0.05377   1.8359E-02  3.6442E-03  1.8717E-02   11.227
     5    1   0.4003   0.0000   0.0000  0.05377   1.9415E-02  4.1349E-03  1.9850E-02   12.023
     6    1   0.4003   0.0380   0.0380  0.05377   1.8284E-02  3.6281E-03  1.8640E-02   11.224
     7    1   0.4003   0.0760   0.0760  0.05377   1.5085E-02  2.7782E-03  1.5338E-02   10.435
     8    1   0.4003   0.1141   0.1141  0.05377   1.0129E-02  1.7543E-03  1.0280E-02    9.826
     9    1   0.4003   0.1521   0.1521  0.05377   3.7569E-03  6.1651E-04  3.8072E-03    9.319
    10    2  -0.0684   0.4227  -0.1521  0.05377   3.8230E-03  6.2986E-04  3.8746E-03    9.356
    11    2  -0.1014   0.4037  -0.1141  0.05377   1.0259E-02  1.7813E-03  1.0413E-02    9.850
    12    2  -0.1343   0.3847  -0.0760  0.05377   1.5211E-02  2.8048E-03  1.5467E-02   10.448
    13    2  -0.1672   0.3657  -0.0380  0.05377   1.8359E-02  3.6442E-03  1.8717E-02   11.227
    14    2  -0.2001   0.3466   0.0000  0.05377   1.9415E-02  4.1349E-03  1.9850E-02   12.023
    15    2  -0.2331   0.3276   0.0380  0.05377   1.8284E-02  3.6281E-03  1.8640E-02   11.224
    16    2  -0.2660   0.3086   0.0760  0.05377   1.5085E-02  2.7782E-03  1.5338E-02   10.435
    17    2  -0.2989   0.2896   0.1141  0.05377   1.0129E-02  1.7543E-03  1.0280E-02    9.826
    18    2  -0.3318   0.2706   0.1521  0.05377   3.7569E-03  6.1651E-04  3.8072E-03    9.319
    19    3  -0.3318  -0.2706  -0.1521  0.05377   3.8230E-03  6.2986E-04  3.8746E-03    9.356
    20    3  -0.2989  -0.2896  -0.1141  0.05377   1.0259E-02  1.7813E-03  1.0413E-02    9.850
    21    3  -0.2660  -0.3086  -0.0760  0.05377   1.5211E-02  2.8048E-03  1.5467E-02   10.448
    22    3  -0.2331  -0.3276  -0.0380  0.05377   1.8359E-02  3.6442E-03  1.8717E-02   11.227
