1



                                 *********************************************

                                    NUMERICAL ELECTROMAGNETICS CODE (NEC-2D)

                                 *********************************************




                                     - - - - COMMENTS - - - -


                          Example 1 :	Dipole in free space 	' Comment cards                          
                          See GetStarted.txt                                                         
                          							' End of comment                                                    




                                 - - - STRUCTURE SPECIFICATION - - -

                                     COORDINATES MUST BE INPUT IN
                                     METERS OR BE SCALED TO METERS
                                     BEFORE STRUCTURE INPUT IS ENDED


  WIRE                                                                               NO. OF    FIRST  LAST     TAG
  NO.        X1         Y1         Z1          X2         Y2         Z2      RADIUS   SEG.     SEG.   SEG.     NO.
     1    0.00000   -0.24180    0.00000     0.00000    0.24180    0.00000    0.00010      9        1     9       1
      THE STRUCTURE HAS BEEN MOVED, MOVE DATA CARD IS -
        0    0  45.00000   0.00000   0.00000   0.00000   0.00000   0.00000   1.00000
      THE STRUCTURE HAS BEEN MOVED, MOVE DATA CARD IS -
        0    0   0.00000   0.00000   0.00000   0.40000   0.00000   0.00000   1.00000
      THE STRUCTURE HAS BEEN MOVED, MOVE DATA CARD IS -
        1    2   0.00000   0.00000 120.00000   0.00000   0.00000   0.00000   1.00000

   TOTAL SEGMENTS USED=   27     NO. SEG. IN A SYMMETRIC CELL=   27     SYMMETRY FLAG=  0


         - MULTIPLE WIRE JUNCTIONS -
 JUNCTION    SEGMENTS  (- FOR END 1, + FOR END 2)
  NONE




                                 - - - - SEGMENTATION DATA - - - -

                                        COORDINATES IN METERS

                         I+ AND I- INDICATE THE SEGMENTS BEFORE AND AFTER I


  SEG.   COORDINATES OF SEG. CENTER     SEG.     ORIENTATION ANGLES    WIRE    CONNECTION DATA   TAG
  NO.       X         Y         Z       LENGTH     ALPHA     BETA      RADIUS    I-   I    I+    NO.
     1   0.40000  -0.15198  -0.15198   0.05373   45.00000  90.00000   0.00010     0    1    2      1
     2   0.40000  -0.11399  -0.11399   0.05373   45.00000  90.00000   0.00010     1    2    3      1
     3   0.40000  -0.07599  -0.07599   0.05373   45.00000  90.00000   0.00010     2    3    4      1
     4   0.40000  -0.03800  -0.03800   0.05373   45.00000  90.00000   0.00010     3    4    5      1
     5   0.40000   0.00000   0.00000   0.05373   45.00000  90.00000   0.00010     4    5    6      1
     6   0.40000   0.03800   0.03800   0.05373   45.00000  90.00000   0.00010     5    6    7      1
     7   0.40000   0.07599   0.07599   0.05373   45.00000  90.00000   0.00010     6    7    8      1
     8   0.40000   0.11399   0.11399   0.05373   45.00000  90.00000   0.00010     7    8    9      1
     9   0.40000   0.15198   0.15198   0.05373   45.00000  90.00000   0.00010     8    9    0      1
    10  -0.06838   0.42240  -0.15198   0.05373   45.00000-150.00000   0.00010     0   10   11      2
    11  -0.10129   0.40340  -0.11399   0.05373   45.00000-150.00000   0.00010    10   11   12      2
    12  -0.13419   0.38441  -0.07599   0.05373   45.00000-150.00000   0.00010    11   12   13      2
    13  -0.16710   0.36541  -0.03800   0.05373   45.00000-150.00000   0.00010    12   13   14      2
    14  -0.20000   0.34641   0.00000   0.05373   45.00000-150.00000   0.00010    13   14   15      2
    15  -0.23290   0.32741   0.03800   0.05373   45.00000-150.00000   0.00010    14   15   16      2
    16  -0.26581   0.30841   0.07599   0.05373   45.00000-150.00000   0.00010    15   16   17      2
    17  -0.29871   0.28942   0.11399   0.05373   45.00000-150.00000   0.00010    16   17   18      2
    18  -0.33162   0.27042   0.15198   0.05373   45.00000-150.00000   0.00010    17   18    0      2
    19  -0.33162  -0.27042  -0.15198   0.05373   45.00000 -30.00000   0.00010     0   19   20      3
    20  -0.29871  -0.28942  -0.11399   0.05373   45.00000 -30.00000   0.00010    19   20   21      3
    21  -0.26581  -0.30841  -0.07599   0.05373   45.00000 -30.00000   0.00010    20   21   22      3
    22  -0.23290  -0.32741  -0.03800   0.05373   45.00000 -30.00000   0.00010    21   22   23      3
    23  -0.20000  -0.34641   0.00000   0.05373   45.00000 -30.00000   0.00010    22   23   24      3
    24  -0.16710  -0.36541   0.03800   0.05373   45.00000 -30.00000   0.00010    23   24   25      3
    25  -0.13419  -0.38441   0.07599   0.05373   45.00000 -30.00000   0.00010    24   25   26      3
    26  -0.10129  -0.40340   0.11399   0.05373   45.00000 -30.00000   0.00010    25   26   27      3
    27  -0.06838  -0.42240   0.15198   0.05373   45.00000 -30.00000   0.00010    26   27    0      3






 ***** DATA CARD NO.  1   EX   0     1     5     0  1.00000E+00  0.00000E+00  0.00000E+00  0.00000E+00  0.00000E+00  0.00000E+00
 ***** DATA CARD NO.  2   EX   0     2     5     0  1.00000E+00  0.00000E+00  0.00000E+00  0.00000E+00  0.00000E+00  0.00000E+00
 ***** DATA CARD NO.  3   EX   0     3     5     0  1.00000E+00  0.00000E+00  0.00000E+00  0.00000E+00  0.00000E+00  0.00000E+00
 ***** DATA CARD NO.  4   FR   0     1     0     0  3.00000E+02  0.00000E+00  0.00000E+00  0.00000E+00  0.00000E+00  0.00000E+00
 ***** DATA CARD NO.  5   RP   0    73     1  1000 -1.80000E+02  0.00000E+00  5.00000E+00  1.00000E+00  0.00000E+00  0.00000E+00




                                 - - - - - - FREQUENCY - - - - - -

                                    FREQUENCY= 3.0000E+02 MHZ
                                    WAVELENGTH= 9.9933E-01 METERS




                    APPROXIMATE INTEGRATION EMPLOYED FOR SEGMENTS MORE THAN   1.000 WAVELENGTHS APART



                               - - - STRUCTURE IMPEDANCE LOADING - - -

                                   THIS STRUCTURE IS NOT LOADED



                                  - - - ANTENNA ENVIRONMENT - - -

                                            FREE SPACE



                                - - - MATRIX TIMING - - -

                        FILL=    0.000 SEC.,  FACTOR=    0.000 SEC.



                                          - - - ANTENNA INPUT PARAMETERS - - -

   TAG   SEG.    VOLTAGE (VOLTS)         CURRENT (AMPS)         IMPEDANCE (OHMS)        ADMITTANCE (MHOS)      POWER
   NO.   NO.    REAL        IMAG.       REAL        IMAG.       REAL        IMAG.       REAL        IMAG.     (WATTS)
     1     5 1.00000E+00 0.00000E+00 1.53562E-02 8.49058E-04 6.49218E+01-3.58958E+00 1.53562E-02 8.49058E-04 7.67810E-03
     2    14 1.00000E+00 0.00000E+00 1.53562E-02 8.49058E-04 6.49218E+01-3.58958E+00 1.53562E-02 8.49058E-04 7.67810E-03
     3    23 1.00000E+00 0.00000E+00 1.53562E-02 8.49058E-04 6.49218E+01-3.58958E+00 1.53562E-02 8.49058E-04 7.67810E-03



                             - - - CURRENTS AND LOCATION - - -

                                 DISTANCES IN WAVELENGTHS


  SEG.  TAG    COORD. OF SEG. CENTER     SEG.            - - - CURRENT (AMPS) - - -
  NO.   NO.     X        Y        Z      LENGTH     REAL        IMAG.       MAG.        PHASE
     1    1   0.4003  -0.1521  -0.1521  0.05377   2.9991E-03 -1.8036E-05  2.9992E-03   -0.345
     2    1   0.4003  -0.1141  -0.1141  0.05377   8.0651E-03  4.2875E-05  8.0652E-03    0.305
     3    1   0.4003  -0.0760  -0.0760  0.05377   1.1982E-02  2.2809E-04  1.1985E-02    1.091
     4    1   0.4003  -0.0380  -0.0380  0.05377   1.4492E-02  5.3549E-04  1.4501E-02    2.116
     5    1   0.4003   0.0000   0.0000  0.05377   1.5356E-02  8.4906E-04  1.5380E-02    3.165
     6    1   0.4003   0.0380   0.0380  0.05377   1.4492E-02  5.3549E-04  1.4501E-02    2.116
     7    1   0.4003   0.0760   0.0760  0.05377   1.1982E-02  2.2809E-04  1.1985E-02    1.091
     8    1   0.4003   0.1141   0.1141  0.05377   8.0651E-03  4.2875E-05  8.0652E-03    0.305
     9    1   0.4003   0.1521   0.1521  0.05377   2.9991E-03 -1.8036E-05  2.9992E-03   -0.345
    10    2  -0.0684   0.4227  -0.1521  0.05377   2.9991E-03 -1.8036E-05  2.9992E-03   -0.345
    11    2  -0.1014   0.4037  -0.1141  0.05377   8.0651E-03  4.2875E-05  8.0652E-03    0.305
    12    2  -0.1343   0.3847  -0.0760  0.05377   1.1982E-02  2.2809E-04  1.1985E-02    1.091
    13    2  -0.1672   0.3657  -0.0380  0.05377   1.4492E-02  5.3549E-04  1.4501E-02    2.116
    14    2  -0.2001   0.3466   0.0000  0.05377   1.5356E-02  8.4906E-04  1.5380E-02    3.165
    15    2  -0.2331   0.3276   0.0380  0.05377   1.4492E-02  5.3549E-04  1.4501E-02    2.116
    16    2  -0.2660   0.3086   0.0760  0.05377   1.1982E-02  2.2809E-04  1.1985E-02    1.091
    17    2  -0.2989   0.2896   0.1141  0.05377   8.0651E-03  4.2875E-05  8.0652E-03    0.305
    18    2  -0.3318   0.2706   0.1521  0.05377   2.9991E-03 -1.8036E-05  2.9992E-03   -0.345
    19    3  -0.3318  -0.2706  -0.1521  0.05377   2.9991E-03 -1.8036E-05  2.9992E-03   -0.345
    20    3  -0.2989  -0.2896  -0.1141  0.05377   8.0651E-03  4.2875E-05  8.0652E-03    0.305
    21    3  -0.2660  -0.3086  -0.0760  0.05377   1.1982E-02  2.2809E-04  1.1985E-02    1.091
    22    3  -0.2331  -0.3276  -0.0380  0.05377   1.4492E-02  5.3549E-04  1.4501E-02    2.116
    23    3  -0.2001  -0.3466   0.0000  0.05377   1.5356E-02  8.4906E-04  1.5380E-02    3.165
    24    3  -0.1672  -0.3657   0.0380  0.05377   1.4492E-02  5.3549E-04  1.4501E-02    2.116
    25    3  -0.1343  -0.3847   0.0760  0.05377   1.1982E-02  2.2809E-04  1.1985E-02    1.091
    26    3  -0.1014  -0.4037   0.1141  0.05377   8.0651E-03  4.2875E-05  8.0652E-03    0.305
    27    3  -0.0684  -0.4227   0.1521  0.05377   2.9991E-03 -1.8036E-05  2.9992E-03   -0.345



                                        - - - POWER BUDGET - - -

                                           INPUT POWER   = 2.3034E-02 WATTS
                                           RADIATED POWER= 2.3034E-02 WATTS
                                           STRUCTURE LOSS= 0.0000E+00 WATTS
                                           NETWORK LOSS  = 0.0000E+00 WATTS
                                           EFFICIENCY    = 100.00 PERCENT



                                                - - - RADIATION PATTERNS - - -

  - - ANGLES - -           - POWER GAINS -       - - - POLARIZATION - - -    - - - E(THETA) - - -    - - - E(PHI) - - -
  THETA     PHI        VERT.   HOR.    TOTAL      AXIAL     TILT   SENSE     MAGNITUDE    PHASE      MAGNITUDE    PHASE 
 DEGREES  DEGREES       DB      DB      DB        RATIO     DEG.              VOLTS/M    DEGREES      VOLTS/M    DEGREES
 -180.00     0.00    -999.99 -999.99 -999.99    0.00000     0.00            2.61855E-11    94.07    2.30785E-11    -7.71
 -175.00     0.00     -17.01  -15.91  -13.42    0.86814   -76.82  RIGHT     1.65769E-01   -87.77    1.88131E-01   178.63
 -170.00     0.00     -11.33  -10.03   -7.62    0.81973   -69.64  RIGHT     3.18961E-01   -86.96    3.70505E-01   175.60
 -165.00     0.00      -8.37   -6.73   -4.46    0.75749   -66.81  RIGHT     4.48425E-01   -85.88    5.41758E-01   172.61
 -160.00     0.00      -6.66   -4.53   -2.46    0.68658   -65.97  RIGHT     5.45831E-01   -84.35    6.97294E-01   169.67
 -155.00     0.00      -5.74   -2.98   -1.14    0.60830   -65.98  RIGHT     6.06666E-01   -82.13    8.33577E-01   166.81
 -150.00     0.00      -5.40   -1.86   -0.27    0.52311   -66.33  RIGHT     6.30843E-01   -78.92    9.48327E-01   164.03
 -145.00     0.00      -5.51   -1.06    0.27    0.43155   -66.76  RIGHT     6.22957E-01   -74.27    1.04059E+00   161.37
 -140.00     0.00      -5.95   -0.49    0.60    0.33455   -67.12  RIGHT     5.92285E-01   -67.61    1.11072E+00   158.83
 -135.00     0.00      -6.56   -0.11    0.78    0.23353   -67.34  RIGHT     5.52472E-01   -58.36    1.16023E+00   156.43
 -130.00     0.00      -7.08    0.12    0.88    0.13050   -67.35  RIGHT     5.20139E-01   -46.29    1.19154E+00   154.20
 -125.00     0.00      -7.24    0.24    0.95    0.02801   -67.13  RIGHT     5.10501E-01   -32.33    1.20776E+00   152.15
 -120.00     0.00      -6.92    0.27    1.03    0.07080   -66.65  LEFT      5.30086E-01   -18.63    1.21238E+00   150.30
 -115.00     0.00      -6.23    0.25    1.13    0.16241   -65.92  LEFT      5.73389E-01    -7.20    1.20896E+00   148.68
 -110.00     0.00      -5.44    0.19    1.24    0.24309   -64.97  LEFT      6.28097E-01     1.29    1.20090E+00   147.31
 -105.00     0.00      -4.73    0.12    1.35    0.30939   -63.92  LEFT      6.82043E-01     7.13    1.19124E+00   146.22
 -100.00     0.00      -4.18    0.05    1.44    0.35848   -62.92  LEFT      7.26187E-01    10.85    1.18248E+00   145.42
  -95.00     0.00      -3.85    0.01    1.51    0.38853   -62.20  LEFT      7.54752E-01    12.90    1.17646E+00   144.93
  -90.00     0.00      -3.73   -0.01    1.53    0.39863   -61.94  LEFT      7.64602E-01    13.56    1.17432E+00   144.77
  -85.00     0.00      -3.85    0.01    1.51    0.38853   -62.20  LEFT      7.54752E-01    12.90    1.17646E+00   144.93
  -80.00     0.00      -4.18    0.05    1.44    0.35848   -62.92  LEFT      7.26187E-01    10.85    1.18248E+00   145.42
  -75.00     0.00      -4.73    0.12    1.35    0.30939   -63.92  LEFT      6.82043E-01     7.13    1.19124E+00   146.22
  -70.00     0.00      -5.44    0.19    1.24    0.24309   -64.97  LEFT      6.28097E-01     1.29    1.20090E+00   147.31
  -65.00     0.00      -6.23    0.25    1.13    0.16241   -65.92  LEFT      5.73389E-01    -7.20    1.20896E+00   148.68
  -60.00     0.00      -6.92    0.27    1.03    0.07080   -66.65  LEFT      5.30086E-01   -18.63    1.21238E+00   150.30
  -55.00     0.00      -7.24    0.24    0.95    0.02801   -67.13  RIGHT     5.10501E-01   -32.33    1.20776E+00   152.15
  -50.00     0.00      -7.08    0.12    0.88    0.13050   -67.35  RIGHT     5.20139E-01   -46.29    1.19154E+00   154.20
  -45.00     0.00      -6.56   -0.11    0.78    0.23353   -67.34  RIGHT     5.52472E-01   -58.36    1.16023E+00   156.43
  -40.00     0.00      -5.95   -0.49    0.60    0.33455   -67.12  RIGHT     5.92285E-01   -67.61    1.11072E+00   158.83
  -35.00     0.00      -5.51   -1.06    0.27    0.43155   -66.76  RIGHT     6.22957E-01   -74.27    1.04059E+00   161.37
  -30.00     0.00      -5.40   -1.86   -0.27    0.52311   -66.33  RIGHT     6.30843E-01   -78.92    9.48327E-01   164.03
  -25.00     0.00      -5.74   -2.98   -1.14    0.60830   -65.98  RIGHT     6.06666E-01   -82.13    8.33577E-01   166.81
  -20.00     0.00      -6.66   -4.53   -2.46    0.68658   -65.97  RIGHT     5.45831E-01   -84.35    6.97294E-01   169.67
  -15.00     0.00      -8.37   -6.73   -4.46    0.75749   -66.81  RIGHT     4.48425E-01   -85.88    5.41758E-01   172.61
  -10.00     0.00     -11.33  -10.03   -7.62    0.81973   -69.64  RIGHT     3.18961E-01   -86.96    3.70505E-01   175.60
   -5.00     0.00     -17.01  -15.91  -13.42    0.86814   -76.82  RIGHT     1.65769E-01   -87.77    1.88131E-01   178.63
    0.00     0.00    -999.99 -999.99 -999.99    0.00000     0.00            6.61421E-12   -78.60    3.83422E-12   -78.01
    5.00     0.00     -17.02  -15.91  -13.42    0.86625    76.12  RIGHT     1.65703E-01    90.88    1.88119E-01     4.72
   10.00     0.00     -11.33  -10.03   -7.62    0.81709    69.27  RIGHT     3.18711E-01    90.07    3.70461E-01     7.74
   15.00     0.00      -8.38   -6.73   -4.46    0.75469    66.61  RIGHT     4.47915E-01    88.98    5.41666E-01    10.72
   20.00     0.00      -6.67   -4.54   -2.46    0.68384    65.85  RIGHT     5.45048E-01    87.44    6.97146E-01    13.65
   25.00     0.00      -5.76   -2.99   -1.14    0.60572    65.90  RIGHT     6.05662E-01    85.22    8.33377E-01    16.51
   30.00     0.00      -5.42   -1.87   -0.28    0.52076    66.28  RIGHT     6.29733E-01    82.00    9.48086E-01    19.27
   35.00     0.00      -5.53   -1.06    0.27    0.42949    66.72  RIGHT     6.21896E-01    77.34    1.04033E+00    21.92
   40.00     0.00      -5.96   -0.49    0.59    0.33283    67.10  RIGHT     5.91435E-01    70.68    1.11048E+00    24.45
   45.00     0.00      -6.56   -0.11    0.77    0.23221    67.32  RIGHT     5.51953E-01    61.43    1.16002E+00    26.83
   50.00     0.00      -7.08    0.12    0.88    0.12962    67.34  RIGHT     5.19957E-01    49.40    1.19140E+00    29.05
   55.00     0.00      -7.24    0.24    0.95    0.02762    67.13  RIGHT     5.10498E-01    35.50    1.20773E+00    31.09
   60.00     0.00      -6.92    0.27    1.03    0.07069    66.66  LEFT      5.29992E-01    21.87    1.21247E+00    32.92
   65.00     0.00      -6.24    0.25    1.13    0.16180    65.93  LEFT      5.72971E-01    10.48    1.20918E+00    34.53
   70.00     0.00      -5.45    0.19    1.24    0.24202    64.99  LEFT      6.27253E-01     2.02    1.20124E+00    35.89
   75.00     0.00      -4.74    0.12    1.35    0.30793    63.95  LEFT      6.80783E-01    -3.79    1.19169E+00    36.97
   80.00     0.00      -4.20    0.06    1.44    0.35673    62.97  LEFT      7.24595E-01    -7.51    1.18301E+00    37.77
   85.00     0.00      -3.87    0.01    1.50    0.38660    62.26  LEFT      7.52948E-01    -9.56    1.17705E+00    38.25
   90.00     0.00      -3.75    0.00    1.53    0.39665    61.99  LEFT      7.62726E-01   -10.21    1.17493E+00    38.42
   95.00     0.00      -3.87    0.01    1.50    0.38660    62.26  LEFT      7.52948E-01    -9.56    1.17705E+00    38.25
  100.00     0.00      -4.20    0.06    1.44    0.35673    62.97  LEFT      7.24595E-01    -7.51    1.18301E+00    37.77
  105.00     0.00      -4.74    0.12    1.35    0.30793    63.95  LEFT      6.80783E-01    -3.79    1.19169E+00    36.97
  110.00     0.00      -5.45    0.19    1.24    0.24202    64.99  LEFT      6.27253E-01     2.02    1.20124E+00    35.89
  115.00     0.00      -6.24    0.25    1.13    0.16180    65.93  LEFT      5.72971E-01    10.48    1.20918E+00    34.53
  120.00     0.00      -6.92    0.27    1.03    0.07069    66.66  LEFT      5.29992E-01    21.87    1.21247E+00    32.92
  125.00     0.00      -7.24    0.24    0.95    0.02762    67.13  RIGHT     5.10498E-01    35.50    1.20773E+00    31.09
  130.00     0.00      -7.08    0.12    0.88    0.12962    67.34  RIGHT     5.19957E-01    49.40    1.19140E+00    29.05
  135.00     0.00      -6.56   -0.11    0.77    0.23221    67.32  RIGHT     5.51953E-01    61.43    1.16002E+00    26.83
  140.00     0.00      -5.96   -0.49    0.59    0.33283    67.10  RIGHT     5.91435E-01    70.68    1.11048E+00    24.45
  145.00     0.00      -5.53   -1.06    0.27    0.42949    66.72  RIGHT     6.21896E-01    77.34    1.04033E+00    21.92
  150.00     0.00      -5.42   -1.87   -0.28    0.52076    66.28  RIGHT     6.29733E-01    82.00    9.48086E-01    19.27
  155.00     0.00      -5.76   -2.99   -1.14    0.60572    65.90  RIGHT     6.05662E-01    85.22    8.33377E-01    16.51
  160.00     0.00      -6.67   -4.54   -2.46    0.68384    65.85  RIGHT     5.45048E-01    87.44    6.97146E-01    13.65
  165.00     0.00      -8.38   -6.73   -4.46    0.75469    66.61  RIGHT     4.47915E-01    88.98    5.41666E-01    10.72
  170.00     0.00     -11.33  -10.03   -7.62    0.81709    69.27  RIGHT     3.18711E-01    90.07    3.70461E-01     7.74
  175.00     0.00     -17.02  -15.91  -13.42    0.86625    76.12  RIGHT     1.65703E-01    90.88    1.88119E-01     4.72
  180.00     0.00    -999.99 -999.99 -999.99    0.00000     0.00            1.31647E-11   -93.46    2.17920E-11  -168.39






 ***** DATA CARD NO.  6   RP   0    73     1  1000 -1.80000E+02  4.50000E+01  5.00000E+00  1.00000E+00  0.00000E+00  0.00000E+00



                                                - - - RADIATION PATTERNS - - -

  - - ANGLES - -           - POWER GAINS -       - - - POLARIZATION - - -    - - - E(THETA) - - -    - - - E(PHI) - - -
