1



                                 *********************************************

                                    NUMERICAL ELECTROMAGNETICS CODE (NEC-2D)

                                 *********************************************




                                     - - - - COMMENTS - - - -


                          2-part Helix model                                                         
                          1st 2-turns are used as matching section, smaller pitch.                   
                          2nd set of N-2 turns are standard pitch and spacing.                       
                                                                                                     




                                 - - - STRUCTURE SPECIFICATION - - -

                                     COORDINATES MUST BE INPUT IN
                                     METERS OR BE SCALED TO METERS
                                     BEFORE STRUCTURE INPUT IS ENDED


  WIRE                                                                               NO. OF    FIRST  LAST     TAG
  NO.        X1         Y1         Z1          X2         Y2         Z2      RADIUS   SEG.     SEG.   SEG.     NO.
     HELIX STRUCTURE-   AXIAL SPACING BETWEEN TURNS =   0.169 TOTAL AXIAL LENGTH =   0.337
     1  RADIUS OF HELIX =     0.191     0.191     0.191     0.191           0.00100      44        1    44       1
     THE PITCH ANGLE IS    8.0000
     THE LENGTH OF WIRE/TURN IS    1.2118
     HELIX STRUCTURE-   AXIAL SPACING BETWEEN TURNS =   0.266 TOTAL AXIAL LENGTH =   1.064
     2  RADIUS OF HELIX =     0.191     0.191     0.191     0.191           0.00100      88       45   132       2
     THE PITCH ANGLE IS   12.5000
     THE LENGTH OF WIRE/TURN IS    1.2291
      THE STRUCTURE HAS BEEN MOVED, MOVE DATA CARD IS -
        0    0   0.00000   0.00000   0.00000   0.00000   0.00000   0.33730   2.00000

   GROUND PLANE SPECIFIED.

   WHERE WIRE ENDS TOUCH GROUND, CURRENT WILL BE INTERPOLATED TO IMAGE IN GROUND PLANE.


   TOTAL SEGMENTS USED=  132     NO. SEG. IN A SYMMETRIC CELL=  132     SYMMETRY FLAG=  0


         - MULTIPLE WIRE JUNCTIONS -
 JUNCTION    SEGMENTS  (- FOR END 1, + FOR END 2)
  NONE




                                 - - - - SEGMENTATION DATA - - - -

                                        COORDINATES IN METERS

                         I+ AND I- INDICATE THE SEGMENTS BEFORE AND AFTER I


  SEG.   COORDINATES OF SEG. CENTER     SEG.     ORIENTATION ANGLES    WIRE    CONNECTION DATA   TAG
  NO.       X         Y         Z       LENGTH     ALPHA     BETA      RADIUS    I-   I    I+    NO.
     1   0.18712   0.02690   0.00383   0.05490    8.02690  98.18182   0.00100     1    1    2      1
     2   0.17196   0.07853   0.01150   0.05490    8.02690 114.54545   0.00100     1    2    3      1
     3   0.14287   0.12380   0.01916   0.05490    8.02690 130.90909   0.00100     2    3    4      1
     4   0.10220   0.15903   0.02683   0.05490    8.02690 147.27273   0.00100     3    4    5      1
     5   0.05326   0.18138   0.03450   0.05490    8.02690 163.63636   0.00100     4    5    6      1
     6   0.00000   0.18904   0.04216   0.05490    8.02690 180.00000   0.00100     5    6    7      1
     7  -0.05326   0.18138   0.04983   0.05490    8.02690-163.63637   0.00100     6    7    8      1
     8  -0.10220   0.15903   0.05749   0.05490    8.02690-147.27273   0.00100     7    8    9      1
     9  -0.14287   0.12380   0.06516   0.05490    8.02690-130.90909   0.00100     8    9   10      1
    10  -0.17196   0.07853   0.07283   0.05490    8.02690-114.54546   0.00100     9   10   11      1
    11  -0.18712   0.02690   0.08049   0.05490    8.02690 -98.18182   0.00100    10   11   12      1
    12  -0.18712  -0.02690   0.08816   0.05490    8.02690 -81.81819   0.00100    11   12   13      1
    13  -0.17196  -0.07853   0.09582   0.05490    8.02690 -65.45455   0.00100    12   13   14      1
    14  -0.14287  -0.12380   0.10349   0.05490    8.02690 -49.09091   0.00100    13   14   15      1
    15  -0.10220  -0.15903   0.11116   0.05490    8.02690 -32.72728   0.00100    14   15   16      1
    16  -0.05326  -0.18138   0.11882   0.05490    8.02690 -16.36364   0.00100    15   16   17      1
    17   0.00000  -0.18904   0.12649   0.05490    8.02690   0.00000   0.00100    16   17   18      1
    18   0.05326  -0.18138   0.13415   0.05490    8.02690  16.36363   0.00100    17   18   19      1
    19   0.10220  -0.15903   0.14182   0.05490    8.02690  32.72727   0.00100    18   19   20      1
    20   0.14287  -0.12380   0.14948   0.05490    8.02690  49.09090   0.00100    19   20   21      1
    21   0.17196  -0.07853   0.15715   0.05490    8.02690  65.45454   0.00100    20   21   22      1
    22   0.18712  -0.02690   0.16482   0.05490    8.02690  81.81818   0.00100    21   22   23      1
    23   0.18712   0.02690   0.17248   0.05490    8.02690  98.18181   0.00100    22   23   24      1
    24   0.17196   0.07853   0.18015   0.05490    8.02690 114.54545   0.00100    23   24   25      1
    25   0.14287   0.12380   0.18781   0.05490    8.02690 130.90908   0.00100    24   25   26      1
    26   0.10220   0.15903   0.19548   0.05490    8.02690 147.27272   0.00100    25   26   27      1
    27   0.05326   0.18138   0.20315   0.05490    8.02690 163.63636   0.00100    26   27   28      1
    28   0.00000   0.18904   0.21081   0.05490    8.02690 179.99999   0.00100    27   28   29      1
    29  -0.05326   0.18138   0.21848   0.05490    8.02690-163.63637   0.00100    28   29   30      1
    30  -0.10220   0.15903   0.22614   0.05490    8.02690-147.27274   0.00100    29   30   31      1
    31  -0.14287   0.12380   0.23381   0.05490    8.02690-130.90910   0.00100    30   31   32      1
    32  -0.17196   0.07853   0.24147   0.05490    8.02690-114.54546   0.00100    31   32   33      1
    33  -0.18712   0.02690   0.24914   0.05490    8.02690 -98.18183   0.00100    32   33   34      1
    34  -0.18712  -0.02690   0.25681   0.05490    8.02690 -81.81819   0.00100    33   34   35      1
    35  -0.17196  -0.07853   0.26447   0.05490    8.02690 -65.45456   0.00100    34   35   36      1
    36  -0.14287  -0.12380   0.27214   0.05490    8.02690 -49.09092   0.00100    35   36   37      1
    37  -0.10220  -0.15903   0.27980   0.05490    8.02690 -32.72728   0.00100    36   37   38      1
    38  -0.05326  -0.18138   0.28747   0.05490    8.02690 -16.36365   0.00100    37   38   39      1
    39   0.00000  -0.18904   0.29514   0.05490    8.02690  -0.00001   0.00100    38   39   40      1
    40   0.05326  -0.18138   0.30280   0.05490    8.02690  16.36363   0.00100    39   40   41      1
    41   0.10220  -0.15903   0.31047   0.05490    8.02690  32.72726   0.00100    40   41   42      1
    42   0.14287  -0.12380   0.31813   0.05490    8.02690  49.09090   0.00100    41   42   43      1
    43   0.17196  -0.07853   0.32580   0.05490    8.02690  65.45453   0.00100    42   43   44      1
    44   0.18712  -0.02690   0.33347   0.05490    8.02690  81.81817   0.00100    43   44   45      1
    45   0.18712   0.02690   0.34334   0.05569   12.54124  98.18181   0.00100    44   45   46      2
    46   0.17196   0.07853   0.35544   0.05569   12.54124 114.54545   0.00100    45   46   47      2
    47   0.14287   0.12380   0.36753   0.05569   12.54124 130.90909   0.00100    46   47   48      2
    48   0.10220   0.15903   0.37962   0.05569   12.54124 147.27273   0.00100    47   48   49      2
    49   0.05326   0.18138   0.39171   0.05569   12.54124 163.63636   0.00100    48   49   50      2
    50   0.00000   0.18904   0.40381   0.05569   12.54124 180.00000   0.00100    49   50   51      2
    51  -0.05326   0.18138   0.41590   0.05569   12.54124-163.63637   0.00100    50   51   52      2
    52  -0.10220   0.15903   0.42799   0.05569   12.54124-147.27273   0.00100    51   52   53      2
    53  -0.14287   0.12380   0.44008   0.05569   12.54124-130.90909   0.00100    52   53   54      2
    54  -0.17196   0.07853   0.45218   0.05569   12.54124-114.54546   0.00100    53   54   55      2
    55  -0.18712   0.02690   0.46427   0.05569   12.54124 -98.18182   0.00100    54   55   56      2
    56  -0.18712  -0.02690   0.47636   0.05569   12.54124 -81.81819   0.00100    55   56   57      2
    57  -0.17196  -0.07853   0.48845   0.05569   12.54124 -65.45455   0.00100    56   57   58      2
    58  -0.14287  -0.12380   0.50055   0.05569   12.54124 -49.09091   0.00100    57   58   59      2
    59  -0.10220  -0.15903   0.51264   0.05569   12.54124 -32.72728   0.00100    58   59   60      2
    60  -0.05326  -0.18138   0.52473   0.05569   12.54124 -16.36364   0.00100    59   60   61      2
    61   0.00000  -0.18904   0.53682   0.05569   12.54124   0.00000   0.00100    60   61   62      2
    62   0.05326  -0.18138   0.54892   0.05569   12.54124  16.36363   0.00100    61   62   63      2
    63   0.10220  -0.15903   0.56101   0.05569   12.54124  32.72727   0.00100    62   63   64      2
    64   0.14287  -0.12380   0.57310   0.05569   12.54124  49.09090   0.00100    63   64   65      2
    65   0.17196  -0.07853   0.58519   0.05569   12.54124  65.45454   0.00100    64   65   66      2
    66   0.18712  -0.02690   0.59729   0.05569   12.54124  81.81818   0.00100    65   66   67      2
    67   0.18712   0.02690   0.60938   0.05569   12.54124  98.18181   0.00100    66   67   68      2
    68   0.17196   0.07853   0.62147   0.05569   12.54124 114.54545   0.00100    67   68   69      2
    69   0.14287   0.12380   0.63356   0.05569   12.54124 130.90908   0.00100    68   69   70      2
    70   0.10220   0.15903   0.64566   0.05569   12.54124 147.27272   0.00100    69   70   71      2
    71   0.05326   0.18138   0.65775   0.05569   12.54124 163.63636   0.00100    70   71   72      2
    72   0.00000   0.18904   0.66984   0.05569   12.54124 179.99999   0.00100    71   72   73      2
    73  -0.05326   0.18138   0.68193   0.05569   12.54124-163.63637   0.00100    72   73   74      2
    74  -0.10220   0.15903   0.69402   0.05569   12.54124-147.27274   0.00100    73   74   75      2
    75  -0.14287   0.12380   0.70612   0.05569   12.54124-130.90910   0.00100    74   75   76      2
    76  -0.17196   0.07853   0.71821   0.05569   12.54124-114.54546   0.00100    75   76   77      2
    77  -0.18712   0.02690   0.73030   0.05569   12.54124 -98.18183   0.00100    76   77   78      2
    78  -0.18712  -0.02690   0.74239   0.05569   12.54124 -81.81819   0.00100    77   78   79      2
    79  -0.17196  -0.07853   0.75449   0.05569   12.54124 -65.45456   0.00100    78   79   80      2
    80  -0.14287  -0.12380   0.76658   0.05569   12.54124 -49.09092   0.00100    79   80   81      2
    81  -0.10220  -0.15903   0.77867   0.05569   12.54124 -32.72728   0.00100    80   81   82      2
    82  -0.05326  -0.18138   0.79076   0.05569   12.54124 -16.36365   0.00100    81   82   83      2
    83   0.00000  -0.18904   0.80286   0.05569   12.54124  -0.00001   0.00100    82   83   84      2
    84   0.05326  -0.18138   0.81495   0.05569   12.54124  16.36363   0.00100    83   84   85      2
    85   0.10220  -0.15903   0.82704   0.05569   12.54124  32.72726   0.00100    84   85   86      2
    86   0.14287  -0.12380   0.83913   0.05569   12.54124  49.09090   0.00100    85   86   87      2
    87   0.17196  -0.07853   0.85123   0.05569   12.54124  65.45453   0.00100    86   87   88      2
    88   0.18712  -0.02690   0.86332   0.05569   12.54124  81.81817   0.00100    87   88   89      2
    89   0.18712   0.02690   0.87541   0.05569   12.54124  98.18181   0.00100    88   89   90      2
    90   0.17196   0.07853   0.88750   0.05569   12.54124 114.54544   0.00100    89   90   91      2
    91   0.14287   0.12380   0.89960   0.05569   12.54124 130.90908   0.00100    90   91   92      2
    92   0.10220   0.15903   0.91169   0.05569   12.54124 147.27271   0.00100    91   92   93      2
    93   0.05326   0.18138   0.92378   0.05569   12.54124 163.63635   0.00100    92   93   94      2
    94   0.00000   0.18904   0.93587   0.05569   12.54124 179.99999   0.00100    93   94   95      2
    95  -0.05326   0.18138   0.94797   0.05569   12.54124-163.63638   0.00100    94   95   96      2
    96  -0.10220   0.15903   0.96006   0.05569   12.54124-147.27274   0.00100    95   96   97      2
    97  -0.14287   0.12380   0.97215   0.05569   12.54124-130.90911   0.00100    96   97   98      2
    98  -0.17196   0.07853   0.98424   0.05569   12.54124-114.54547   0.00100    97   98   99      2
    99  -0.18712   0.02690   0.99634   0.05569   12.54124 -98.18183   0.00100    98   99  100      2
   100  -0.18712  -0.02690   1.00843   0.05569   12.54124 -81.81820   0.00100    99  100  101      2
   101  -0.17196  -0.07853   1.02052   0.05569   12.54124 -65.45456   0.00100   100  101  102      2
   102  -0.14287  -0.12380   1.03261   0.05569   12.54124 -49.09093   0.00100   101  102  103      2
   103  -0.10220  -0.15903   1.04471   0.05569   12.54124 -32.72729   0.00100   102  103  104      2
   104  -0.05326  -0.18138   1.05680   0.05569   12.54124 -16.36365   0.00100   103  104  105      2
   105   0.00000  -0.18904   1.06889   0.05569   12.54124  -0.00002   0.00100   104  105  106      2
   106   0.05326  -0.18138   1.08098   0.05569   12.54124  16.36362   0.00100   105  106  107      2
   107   0.10220  -0.15903   1.09308   0.05569   12.54124  32.72726   0.00100   106  107  108      2
   108   0.14287  -0.12380   1.10517   0.05569   12.54124  49.09089   0.00100   107  108  109      2
   109   0.17196  -0.07853   1.11726   0.05569   12.54124  65.45453   0.00100   108  109  110      2
   110   0.18712  -0.02690   1.12935   0.05569   12.54124  81.81816   0.00100   109  110  111      2
   111   0.18712   0.02690   1.14145   0.05569   12.54124  98.18180   0.00100   110  111  112      2
   112   0.17196   0.07853   1.15354   0.05569   12.54124 114.54544   0.00100   111  112  113      2
   113   0.14287   0.12380   1.16563   0.05569   12.54124 130.90907   0.00100   112  113  114      2
   114   0.10220   0.15903   1.17772   0.05569   12.54124 147.27271   0.00100   113  114  115      2
   115   0.05326   0.18138   1.18981   0.05569   12.54124 163.63634   0.00100   114  115  116      2
   116   0.00000   0.18904   1.20191   0.05569   12.54124 179.99998   0.00100   115  116  117      2
   117  -0.05326   0.18138   1.21400   0.05569   12.54124-163.63638   0.00100   116  117  118      2
   118  -0.10220   0.15903   1.22609   0.05569   12.54124-147.27275   0.00100   117  118  119      2
   119  -0.14287   0.12380   1.23818   0.05569   12.54124-130.90911   0.00100   118  119  120      2
   120  -0.17196   0.07853   1.25028   0.05569   12.54124-114.54548   0.00100   119  120  121      2
   121  -0.18712   0.02690   1.26237   0.05569   12.54124 -98.18184   0.00100   120  121  122      2
   122  -0.18712  -0.02690   1.27446   0.05569   12.54124 -81.81820   0.00100   121  122  123      2
   123  -0.17196  -0.07853   1.28655   0.05569   12.54124 -65.45457   0.00100   122  123  124      2
   124  -0.14287  -0.12380   1.29865   0.05569   12.54124 -49.09093   0.00100   123  124  125      2
   125  -0.10220  -0.15903   1.31074   0.05569   12.54124 -32.72730   0.00100   124  125  126      2
   126  -0.05326  -0.18138   1.32283   0.05569   12.54124 -16.36366   0.00100   125  126  127      2
   127   0.00000  -0.18904   1.33492   0.05569   12.54124  -0.00002   0.00100   126  127  128      2
   128   0.05326  -0.18138   1.34702   0.05569   12.54124  16.36361   0.00100   127  128  129      2
   129   0.10220  -0.15903   1.35911   0.05569   12.54124  32.72725   0.00100   128  129  130      2
   130   0.14287  -0.12380   1.37120   0.05569   12.54124  49.09089   0.00100   129  130  131      2
   131   0.17196  -0.07853   1.38329   0.05569   12.54124  65.45452   0.00100   130  131  132      2
   132   0.18712  -0.02690   1.39539   0.05569   12.54124  81.81816   0.00100   131  132    0      2






 ***** DATA CARD NO.  1   GN   1     0     0     0  0.00000E+00  0.00000E+00  0.00000E+00  0.00000E+00  0.00000E+00  0.00000E+00
 ***** DATA CARD NO.  2   EK   0     0     0     0  0.00000E+00  0.00000E+00  0.00000E+00  0.00000E+00  0.00000E+00  0.00000E+00
 ***** DATA CARD NO.  3   EX   0     1     2     0  1.00000E+00  0.00000E+00  0.00000E+00  0.00000E+00  0.00000E+00  0.00000E+00
 ***** DATA CARD NO.  4   FR   0     0     0     0  3.00000E+02  0.00000E+00  0.00000E+00  0.00000E+00  0.00000E+00  0.00000E+00
 ***** DATA CARD NO.  5   RP   0    91     1  1000 -9.00000E+01  0.00000E+00  2.00000E+00  1.00000E+00  0.00000E+00  0.00000E+00




                                 - - - - - - FREQUENCY - - - - - -

                                    FREQUENCY= 3.0000E+02 MHZ
                                    WAVELENGTH= 9.9933E-01 METERS




                    APPROXIMATE INTEGRATION EMPLOYED FOR SEGMENTS MORE THAN   1.000 WAVELENGTHS APART

                    THE EXTENDED THIN WIRE KERNEL WILL BE USED



                               - - - STRUCTURE IMPEDANCE LOADING - - -

                                   THIS STRUCTURE IS NOT LOADED



                                  - - - ANTENNA ENVIRONMENT - - -

                                          PERFECT GROUND



                                - - - MATRIX TIMING - - -

                        FILL=    3.630 SEC.,  FACTOR=    1.370 SEC.



                                          - - - ANTENNA INPUT PARAMETERS - - -

   TAG   SEG.    VOLTAGE (VOLTS)         CURRENT (AMPS)         IMPEDANCE (OHMS)        ADMITTANCE (MHOS)      POWER
   NO.   NO.    REAL        IMAG.       REAL        IMAG.       REAL        IMAG.       REAL        IMAG.     (WATTS)
     1     2 1.00000E+00 0.00000E+00 4.91368E-03-9.49039E-05 2.03438E+02 3.92924E+00 4.91368E-03-9.49039E-05 2.45684E-03



                             - - - CURRENTS AND LOCATION - - -

                                 DISTANCES IN WAVELENGTHS


  SEG.  TAG    COORD. OF SEG. CENTER     SEG.            - - - CURRENT (AMPS) - - -
  NO.   NO.     X        Y        Z      LENGTH     REAL        IMAG.       MAG.        PHASE
     1    1   0.1872   0.0269   0.0038  0.05493   5.3237E-03  8.7600E-05  5.3244E-03    0.943
     2    1   0.1721   0.0786   0.0115  0.05493   4.9137E-03 -9.4904E-05  4.9146E-03   -1.106
     3    1   0.1430   0.1239   0.0192  0.05493   4.0878E-03 -1.5165E-03  4.3601E-03  -20.354
     4    1   0.1023   0.1591   0.0268  0.05493   2.9148E-03 -2.8120E-03  4.0501E-03  -43.972
     5    1   0.0533   0.1815   0.0345  0.05493   1.5111E-03 -3.6944E-03  3.9915E-03  -67.755
     6    1   0.0000   0.1892   0.0422  0.05493   1.9912E-05 -4.1193E-03  4.1194E-03  -89.723
     7    1  -0.0533   0.1815   0.0499  0.05493  -1.4060E-03 -4.0689E-03  4.3050E-03 -109.063
     8    1  -0.1023   0.1591   0.0575  0.05493  -2.6218E-03 -3.5686E-03  4.4282E-03 -126.304
     9    1  -0.1430   0.1239   0.0652  0.05493  -3.5062E-03 -2.6879E-03  4.4179E-03 -142.525
    10    1  -0.1721   0.0786   0.0729  0.05493  -3.9751E-03 -1.5340E-03  4.2608E-03 -158.899
    11    1  -0.1872   0.0269   0.0805  0.05493  -3.9907E-03 -2.4076E-04  3.9980E-03 -176.547
    12    1  -0.1872  -0.0269   0.0882  0.05493  -3.5648E-03  1.0457E-03  3.7150E-03  163.651
    13    1  -0.1721  -0.0786   0.0959  0.05493  -2.7571E-03  2.1833E-03  3.5169E-03  141.625
    14    1  -0.1430  -0.1239   0.1036  0.05493  -1.6680E-03  3.0494E-03  3.4758E-03  118.678
    15    1  -0.1023  -0.1591   0.1112  0.05493  -4.2626E-04  3.5543E-03  3.5798E-03   96.839
    16    1  -0.0533  -0.1815   0.1189  0.05493   8.2563E-04  3.6505E-03  3.7427E-03   77.256
    17    1   0.0000  -0.1892   0.1266  0.05493   1.9481E-03  3.3373E-03  3.8643E-03   59.727
    18    1   0.0533  -0.1815   0.1342  0.05493   2.8202E-03  2.6605E-03  3.8771E-03   43.332
    19    1   0.1023  -0.1591   0.1419  0.05493   3.3528E-03  1.7057E-03  3.7618E-03   26.965
