CITIFILE A.01.00
#NA VERSION HP8719ES.07.66: Jul 25, 2000
NAME DATA
VAR FREQ MAG 201
DATA S[1,1] RI
SEG_LIST_BEGIN
SEG 500000000 2500000000 201
SEG_LIST_END
BEGIN
4.73754E-1,-8.76098E-1
4.10400E-1,-9.04449E-1
3.45397E-1,-9.31884E-1
2.79327E-1,-9.55658E-1
2.12280E-1,-9.72259E-1
1.44470E-1,-9.82238E-1
0.79345E-1,-9.89471E-1
0.09277E-1,-9.93835E-1
-5.82275E-2,-9.92126E-1
-1.27319E-1,-9.86602E-1
-1.93908E-1,-9.73968E-1
-2.58758E-1,-9.57031E-1
-3.23730E-1,-9.375E-1
-3.87756E-1,-9.12597E-1
-4.48242E-1,-8.82019E-1
-5.04638E-1,-8.50524E-1
-5.60424E-1,-8.17382E-1
-6.15600E-1,-7.76367E-1
-6.65283E-1,-7.33642E-1
-7.12402E-1,-6.88842E-1
-7.54394E-1,-6.38549E-1
-7.95166E-1,-5.87280E-1
-8.32397E-1,-5.32836E-1
-8.63403E-1,-4.78576E-1
-8.91845E-1,-4.20532E-1
-9.17358E-1,-3.63220E-1
-9.39758E-1,-3.02551E-1
-9.56543E-1,-2.42736E-1
-9.68872E-1,-1.79260E-1
-9.78454E-1,-1.17126E-1
-9.82788E-1,-5.40161E-2
-9.85412E-1,0.10253E-1
-9.81750E-1,0.72692E-1
-9.75097E-1,1.34552E-1
-9.63348E-1,1.97479E-1
-9.48120E-1,2.58178E-1
-9.26879E-1,3.20007E-1
-9.07714E-1,3.78906E-1
-8.83361E-1,4.31579E-1
-8.50647E-1,4.88708E-1
-8.19702E-1,5.39917E-1
-7.83569E-1,5.88134E-1
-7.44323E-1,6.37268E-1
-7.03247E-1,6.80725E-1
-6.61621E-1,7.23327E-1
-6.14196E-1,7.63061E-1
-5.64392E-1,7.99926E-1
-5.13183E-1,8.30993E-1
-4.59960E-1,8.62121E-1
-4.05212E-1,8.88549E-1
-3.48999E-1,9.11254E-1
-2.92724E-1,9.28527E-1
-2.32421E-1,9.44519E-1
-1.75323E-1,9.56543E-1
-1.16668E-1,9.64172E-1
-5.42602E-2,9.68078E-1
0.05493E-1,9.70153E-1
0.65368E-1,9.65637E-1
1.25671E-1,9.59411E-1
1.85852E-1,9.48150E-1
2.44110E-1,9.33471E-1
3.01239E-1,9.16351E-1
3.56109E-1,8.92242E-1
4.10949E-1,8.67675E-1
4.63714E-1,8.39996E-1
5.11779E-1,8.05542E-1
5.61218E-1,7.71759E-1
6.08520E-1,7.32879E-1
6.51855E-1,6.90246E-1
6.93054E-1,6.46575E-1
7.30896E-1,5.98083E-1
7.65502E-1,5.48584E-1
7.98889E-1,4.9646E-1
8.29834E-1,4.42810E-1
8.52783E-1,3.82568E-1
8.70788E-1,3.22692E-1
8.86901E-1,2.64038E-1
8.98254E-1,2.03979E-1
9.05395E-1,1.44409E-1
9.09362E-1,0.85540E-1
9.12048E-1,0.24963E-1
9.07348E-1,-3.91845E-2
8.98437E-1,-9.96093E-2
8.86535E-1,-1.60949E-1
8.69689E-1,-2.22229E-1
8.46252E-1,-2.86560E-1
8.15002E-1,-3.41918E-1
7.81921E-1,-3.97155E-1
7.43774E-1,-4.50744E-1
7.00683E-1,-5.01586E-1
6.51245E-1,-5.48339E-1
6.01867E-1,-5.82458E-1
5.54260E-1,-6.20422E-1
5.00854E-1,-6.55090E-1
4.43939E-1,-6.81579E-1
3.86901E-1,-7.07702E-1
3.28735E-1,-7.30835E-1
2.63305E-1,-7.44628E-1
1.96777E-1,-7.56469E-1
1.30676E-1,-7.58117E-1
0.61218E-1,-7.53356E-1
-3.54003E-3,-7.40783E-1
-6.75048E-2,-7.15332E-1
-1.23901E-1,-6.86950E-1
-1.71875E-1,-6.53259E-1
-2.16003E-1,-6.28234E-1
-2.69775E-1,-5.92102E-1
-3.12805E-1,-5.47424E-1
-3.49060E-1,-4.96887E-1
-3.79119E-1,-4.48059E-1
-4.05654E-1,-4.01092E-1
-4.30252E-1,-3.45764E-1
-4.44442E-1,-2.83416E-1
-4.38934E-1,-2.27523E-1
-4.31549E-1,-1.89758E-1
-4.38446E-1,-1.38168E-1
-4.17495E-1,-9.01031E-2
-3.99627E-1,-5.71136E-2
-3.86032E-1,-3.13568E-2
-3.82843E-1,0.00122E-1
-3.66104E-1,0.44982E-1
-3.36166E-1,0.77728E-1
-3.09997E-1,1.06277E-1
-2.82424E-1,1.35925E-1
-2.36618E-1,1.55777E-1
-2.03048E-1,1.63909E-1
-1.63978E-1,1.70761E-1
-1.31492E-1,1.55006E-1
-1.22337E-1,1.49757E-1
-1.10603E-1,1.63024E-1
-7.47985E-2,1.68006E-1
-5.05142E-2,1.59874E-1
-3.07846E-2,1.57356E-1
-8.91113E-3,1.46438E-1
0.08659E-1,1.38084E-1
0.29167E-1,1.30737E-1
5.00106E-2,1.06262E-1
4.98161E-2,8.49113E-2
4.83169E-2,6.70967E-2
4.86412E-2,6.57501E-2
5.80596E-2,5.20019E-2
5.94940E-2,4.21333E-2
6.76536E-2,3.03802E-2
6.75582E-2,0.49972E-2
5.59845E-2,-3.13377E-3
6.19468E-2,-1.27468E-2
4.73823E-2,-3.17802E-2
3.9608E-2,-3.59382E-2
3.13758E-2,-4.57954E-2
2.28881E-2,-4.77027E-2
1.13639E-2,-5.22270E-2
0.05264E-2,-5.05752E-2
-5.97381E-3,-4.65431E-2
-8.60595E-3,-3.80287E-2
-7.24411E-3,-3.62472E-2
-3.63922E-3,-4.16412E-2
-1.35345E-2,-4.55131E-2
-2.21214E-2,-4.67376E-2
-3.68080E-2,-3.87916E-2
-4.34303E-2,-2.24151E-2
-3.64589E-2,-1.43489E-2
-3.68232E-2,-4.06074E-3
-2.54516E-2,-2.35176E-3
-2.67734E-2,-3.83186E-3
-2.41794E-2,0.01373E-2
-2.83412E-2,0.00133E-2
-1.97048E-2,1.84288E-2
-6.38103E-3,1.05543E-2
-4.75883E-4,6.41250E-3
-1.96361E-3,3.02219E-3
0.25367E-3,9.98020E-3
1.61743E-2,1.48506E-2
3.09925E-2,0.83618E-2
4.71897E-2,0.38337E-2
6.27059E-2,-1.32789E-2
7.12509E-2,-2.90947E-2
7.77778E-2,-4.42619E-2
8.79745E-2,-6.03561E-2
9.33837E-2,-7.83462E-2
1.02401E-1,-1.02203E-1
1.06277E-1,-1.32339E-1
0.98358E-1,-1.62803E-1
0.90339E-1,-1.88995E-1
0.80047E-1,-2.18719E-1
0.64682E-1,-2.5E-1
0.41656E-1,-2.81036E-1
0.14923E-1,-3.15002E-1
-2.40478E-2,-3.42849E-1
-6.38885E-2,-3.65325E-1
-1.07132E-1,-3.88961E-1
-1.63040E-1,-4.09393E-1
-2.26913E-1,-4.16976E-1
-2.85781E-1,-4.10156E-1
-3.46481E-1,-4.06524E-1
-4.12139E-1,-3.83422E-1
-4.67010E-1,-3.55651E-1
-5.19805E-1,-3.26782E-1
-5.77392E-1,-2.92175E-1
-6.34277E-1,-2.45117E-1
-6.85668E-1,-1.85028E-1
-7.27264E-1,-1.17126E-1
END

