 
 
 **********************************************
    NUMERICAL ELECTROMAGNETICS CODE (NEC-2D-P)
 **********************************************
 
 Enhanced version, copyright 1997-2001 Nittany Scientific
 
 Run date:  18:21:19 on 08-JAN-2009
 
 Parameter dimensions:
 
   NEC2D Version:  2.5  
   Maximum # of segments:            22
   Maximum # of segments in core:            22
   Maximum # of new connections to NGF segments:           180
   Maximum # of sources:             2
   Maximum # of degrees of symmetry:             1
   Maximum # of networks:             0
   Maximum # of segments at a junction:             1
   Maximum # of loads:             1
   Maximum # of frequencies or angles:           361
 
 **********************************************
 
1



                                 *********************************************

                                    NUMERICAL ELECTROMAGNETICS CODE (NEC-2D)

                                 *********************************************




                                     - - - - COMMENTS - - - -


  NEC-WIN Example                                                                                                                
  Simple dipole antenna in Free Space                                                                                            
  Optimized for resonance at 300 MHz                                                                                             
                                                                                                                                 




                                 - - - STRUCTURE SPECIFICATION - - -

                                     COORDINATES MUST BE INPUT IN
                                     METERS OR BE SCALED TO METERS
                                     BEFORE STRUCTURE INPUT IS ENDED


  WIRE                                                                               NO. OF    FIRST  LAST     TAG
  NO.        X1         Y1         Z1          X2         Y2         Z2      RADIUS   SEG.     SEG.   SEG.     NO.
     1   -0.24180    0.00000    0.00000     0.24180    0.00000    0.00000    0.00010     11        1    11       1
     2   -0.24180    0.70000    0.00000     0.24180    0.70000    0.00000    0.00010     11       12    22       2
      THE STRUCTURE HAS BEEN MOVED, MOVE DATA CARD IS -
        0    0   0.00000 -25.00000   0.00000   0.00000   0.00000   0.00000   0.00000
       GM command acting on tag #'s            0 through            0
  inclusive.
      STRUCTURE SCALED BY FACTOR   1.00000

   TOTAL SEGMENTS USED=   22     NO. SEG. IN A SYMMETRIC CELL=   22     SYMMETRY FLAG=  0


         - MULTIPLE WIRE JUNCTIONS -
 JUNCTION    SEGMENTS  (- FOR END 1, + FOR END 2)
  NONE




                                 - - - - SEGMENTATION DATA - - - -

                                        COORDINATES IN METERS

                         I+ AND I- INDICATE THE SEGMENTS BEFORE AND AFTER I


  SEG.     COORDINATES OF SEG. CENTER       SEG.     ORIENTATION ANGLES    WIRE    CONNECTION DATA   TAG
  NO.        X          Y          Z        LENGTH     ALPHA     BETA      RADIUS    I-   I    I+    NO.
     1   -0.19922    0.00000   -0.09290    0.04396   25.00000   0.00000   0.00010     0    1    2      1
     2   -0.15938    0.00000   -0.07432    0.04396   25.00000   0.00000   0.00010     1    2    3      1
     3   -0.11953    0.00000   -0.05574    0.04396   25.00000   0.00000   0.00010     2    3    4      1
     4   -0.07969    0.00000   -0.03716    0.04396   25.00000   0.00000   0.00010     3    4    5      1
     5   -0.03984    0.00000   -0.01858    0.04396   25.00000   0.00000   0.00010     4    5    6      1
     6    0.00000    0.00000    0.00000    0.04396   25.00000   0.00000   0.00010     5    6    7      1
     7    0.03984    0.00000    0.01858    0.04396   25.00000   0.00000   0.00010     6    7    8      1
     8    0.07969    0.00000    0.03716    0.04396   25.00000   0.00000   0.00010     7    8    9      1
     9    0.11953    0.00000    0.05574    0.04396   25.00000   0.00000   0.00010     8    9   10      1
    10    0.15938    0.00000    0.07432    0.04396   25.00000   0.00000   0.00010     9   10   11      1
    11    0.19922    0.00000    0.09290    0.04396   25.00000   0.00000   0.00010    10   11    0      1
    12   -0.19922    0.70000   -0.09290    0.04396   25.00000   0.00000   0.00010     0   12   13      2
    13   -0.15938    0.70000   -0.07432    0.04396   25.00000   0.00000   0.00010    12   13   14      2
    14   -0.11953    0.70000   -0.05574    0.04396   25.00000   0.00000   0.00010    13   14   15      2
    15   -0.07969    0.70000   -0.03716    0.04396   25.00000   0.00000   0.00010    14   15   16      2
    16   -0.03984    0.70000   -0.01858    0.04396   25.00000   0.00000   0.00010    15   16   17      2
    17    0.00000    0.70000    0.00000    0.04396   25.00000   0.00000   0.00010    16   17   18      2
    18    0.03984    0.70000    0.01858    0.04396   25.00000   0.00000   0.00010    17   18   19      2
    19    0.07969    0.70000    0.03716    0.04396   25.00000   0.00000   0.00010    18   19   20      2
    20    0.11953    0.70000    0.05574    0.04396   25.00000   0.00000   0.00010    19   20   21      2
    21    0.15938    0.70000    0.07432    0.04396   25.00000   0.00000   0.00010    20   21   22      2
    22    0.19922    0.70000    0.09290    0.04396   25.00000   0.00000   0.00010    21   22    0      2






 ***** DATA CARD NO.   1 GN    -1     0     0     0  0.00000E+00  0.00000E+00  0.00000E+00  0.00000E+00  0.00000E+00  0.00000E+00
 ***** DATA CARD NO.   2 EX     0     1     6     0  1.00000E+00  0.00000E+00  0.00000E+00  0.00000E+00  0.00000E+00  0.00000E+00
 ***** DATA CARD NO.   3 EX     0     2     6     0  1.00000E+00  0.00000E+00  0.00000E+00  0.00000E+00  0.00000E+00  0.00000E+00
 ***** DATA CARD NO.   4 FR     0     0     0     0  3.00000E+02  0.00000E+00  0.00000E+00  0.00000E+00  0.00000E+00  0.00000E+00
 ***** DATA CARD NO.   5 RP     0    73     1  1000 -1.80000E+02  0.00000E+00  5.00000E+00  1.00000E+00  0.00000E+00  0.00000E+00




                                 - - - - - - FREQUENCY - - - - - -

                                    FREQUENCY= 3.0000E+02 MHZ
                                    WAVELENGTH= 9.9933E-01 METERS




                    APPROXIMATE INTEGRATION EMPLOYED FOR SEGMENTS MORE THAN   1.000 WAVELENGTHS APART



                               - - - STRUCTURE IMPEDANCE LOADING - - -

                                   THIS STRUCTURE IS NOT LOADED



                                  - - - ANTENNA ENVIRONMENT - - -

                                            FREE SPACE



                                - - - MATRIX TIMING - - -

                        FILL=    0.550 SEC.,  FACTOR=    0.110 SEC.



                                          - - - ANTENNA INPUT PARAMETERS - - -

   TAG   SEG.    VOLTAGE (VOLTS)         CURRENT (AMPS)         IMPEDANCE (OHMS)        ADMITTANCE (MHOS)      POWER
   NO.   NO.    REAL        IMAG.       REAL        IMAG.       REAL        IMAG.       REAL        IMAG.     (WATTS)
     1     6 1.00000E+00 0.00000E+00 2.09773E-02-5.86165E-04 4.76335E+01 1.33102E+00 2.09773E-02-5.86165E-04 1.04886E-02
     2    17 1.00000E+00 0.00000E+00 2.09773E-02-5.86165E-04 4.76335E+01 1.33102E+00 2.09773E-02-5.86165E-04 1.04886E-02



                             - - - CURRENTS AND LOCATION - - -

                                 DISTANCES IN WAVELENGTHS


  SEG.  TAG    COORD. OF SEG. CENTER     SEG.            - - - CURRENT (AMPS) - - -
  NO.   NO.     X        Y        Z      LENGTH     REAL        IMAG.       MAG.        PHASE
     1    1  -0.1994   0.0000  -0.0930  0.04399   3.4250E-03 -2.5674E-04  3.4346E-03   -4.287
     2    1  -0.1595   0.0000  -0.0744  0.04399   9.2957E-03 -6.3460E-04  9.3173E-03   -3.905
     3    1  -0.1196   0.0000  -0.0558  0.04399   1.4160E-02 -8.5771E-04  1.4186E-02   -3.466
     4    1  -0.0797   0.0000  -0.0372  0.04399   1.7863E-02 -9.1840E-04  1.7887E-02   -2.943
     5    1  -0.0399   0.0000  -0.0186  0.04399   2.0186E-02 -8.0100E-04  2.0202E-02   -2.272
     6    1   0.0000   0.0000   0.0000  0.04399   2.0977E-02 -5.8616E-04  2.0985E-02   -1.601
     7    1   0.0399   0.0000   0.0186  0.04399   2.0186E-02 -8.0100E-04  2.0202E-02   -2.272
     8    1   0.0797   0.0000   0.0372  0.04399   1.7863E-02 -9.1840E-04  1.7887E-02   -2.943
     9    1   0.1196   0.0000   0.0558  0.04399   1.4160E-02 -8.5771E-04  1.4186E-02   -3.466
    10    1   0.1595   0.0000   0.0744  0.04399   9.2957E-03 -6.3460E-04  9.3173E-03   -3.905
    11    1   0.1994   0.0000   0.0930  0.04399   3.4250E-03 -2.5674E-04  3.4346E-03   -4.287
    12    2  -0.1994   0.7005  -0.0930  0.04399   3.4250E-03 -2.5674E-04  3.4346E-03   -4.287
    13    2  -0.1595   0.7005  -0.0744  0.04399   9.2957E-03 -6.3460E-04  9.3173E-03   -3.905
    14    2  -0.1196   0.7005  -0.0558  0.04399   1.4160E-02 -8.5771E-04  1.4186E-02   -3.466
    15    2  -0.0797   0.7005  -0.0372  0.04399   1.7863E-02 -9.1840E-04  1.7887E-02   -2.943
    16    2  -0.0399   0.7005  -0.0186  0.04399   2.0186E-02 -8.0100E-04  2.0202E-02   -2.272
    17    2   0.0000   0.7005   0.0000  0.04399   2.0977E-02 -5.8616E-04  2.0985E-02   -1.601
    18    2   0.0399   0.7005   0.0186  0.04399   2.0186E-02 -8.0100E-04  2.0202E-02   -2.272
    19    2   0.0797   0.7005   0.0372  0.04399   1.7863E-02 -9.1840E-04  1.7887E-02   -2.943
    20    2   0.1196   0.7005   0.0558  0.04399   1.4160E-02 -8.5771E-04  1.4186E-02   -3.466
    21    2   0.1595   0.7005   0.0744  0.04399   9.2957E-03 -6.3460E-04  9.3173E-03   -3.905
    22    2   0.1994   0.7005   0.0930  0.04399   3.4250E-03 -2.5674E-04  3.4346E-03   -4.287



                                        - - - POWER BUDGET - - -

                                           INPUT POWER   = 2.0977E-02 WATTS
                                           RADIATED POWER= 2.0977E-02 WATTS
                                           STRUCTURE LOSS= 0.0000E+00 WATTS
                                           NETWORK LOSS  = 0.0000E+00 WATTS
                                           EFFICIENCY    = 100.00 PERCENT



                                                - - - RADIATION PATTERNS - - -

  - - ANGLES - -           - POWER GAINS -       - - - POLARIZATION - - -    - - - E(THETA) - - -    - - - E(PHI) - - -
  THETA     PHI        VERT.   HOR.    TOTAL      AXIAL     TILT   SENSE     MAGNITUDE    PHASE      MAGNITUDE    PHASE 
 DEGREES  DEGREES       DB      DB      DB        RATIO     DEG.              VOLTS/M    DEGREES      VOLTS/M    DEGREES
 -180.00     0.00       5.73 -999.99    5.73    0.00000     0.00  LINEAR    2.16955E+00    87.18    0.00000E+00     0.00
 -175.00     0.00       5.19 -999.99    5.19    0.00000     0.00  LINEAR    2.03946E+00    87.20    0.00000E+00     0.00
 -170.00     0.00       4.55 -999.99    4.55    0.00000     0.00  LINEAR    1.89428E+00    87.21    0.00000E+00     0.00
 -165.00     0.00       3.80 -999.99    3.80    0.00000     0.00  LINEAR    1.73726E+00    87.23    0.00000E+00     0.00
 -160.00     0.00       2.93 -999.99    2.93    0.00000     0.00  LINEAR    1.57149E+00    87.24    0.00000E+00     0.00
 -155.00     0.00       1.93 -999.99    1.93    0.00000     0.00  LINEAR    1.39978E+00    87.26    0.00000E+00     0.00
 -150.00     0.00       0.76 -999.99    0.76    0.00000     0.00  LINEAR    1.22452E+00    87.28    0.00000E+00     0.00
 -145.00     0.00      -0.59 -999.99   -0.59    0.00000     0.00  LINEAR    1.04765E+00    87.29    0.00000E+00     0.00
 -140.00     0.00      -2.20 -999.99   -2.20    0.00000     0.00  LINEAR    8.70575E-01    87.31    0.00000E+00     0.00
 -135.00     0.00      -4.17 -999.99   -4.17    0.00000     0.00  LINEAR    6.94230E-01    87.32    0.00000E+00     0.00
 -130.00     0.00      -6.69 -999.99   -6.69    0.00000     0.00  LINEAR    5.19076E-01    87.33    0.00000E+00     0.00
 -125.00     0.00     -10.23 -999.99  -10.23    0.00000     0.00  LINEAR    3.45183E-01    87.34    0.00000E+00     0.00
 -120.00     0.00     -16.27 -999.99  -16.27    0.00000     0.00  LINEAR    1.72309E-01    87.34    0.00000E+00     0.00
 -115.00     0.00    -999.99 -999.99 -999.99    0.00000     0.00            1.00708E-11    87.35    0.00000E+00     0.00
 -110.00     0.00     -16.27 -999.99  -16.27    0.00000     0.00  LINEAR    1.72309E-01   -92.66    0.00000E+00     0.00
 -105.00     0.00     -10.23 -999.99  -10.23    0.00000     0.00  LINEAR    3.45183E-01   -92.66    0.00000E+00     0.00
 -100.00     0.00      -6.69 -999.99   -6.69    0.00000     0.00  LINEAR    5.19076E-01   -92.67    0.00000E+00     0.00
  -95.00     0.00      -4.17 -999.99   -4.17    0.00000     0.00  LINEAR    6.94230E-01   -92.68    0.00000E+00     0.00
  -90.00     0.00      -2.20 -999.99   -2.20    0.00000     0.00  LINEAR    8.70575E-01   -92.69    0.00000E+00     0.00
  -85.00     0.00      -0.59 -999.99   -0.59    0.00000     0.00  LINEAR    1.04765E+00   -92.71    0.00000E+00     0.00
  -80.00     0.00       0.76 -999.99    0.76    0.00000     0.00  LINEAR    1.22452E+00   -92.72    0.00000E+00     0.00
  -75.00     0.00       1.93 -999.99    1.93    0.00000     0.00  LINEAR    1.39978E+00   -92.74    0.00000E+00     0.00
  -70.00     0.00       2.93 -999.99    2.93    0.00000     0.00  LINEAR    1.57149E+00   -92.76    0.00000E+00     0.00
  -65.00     0.00       3.80 -999.99    3.80    0.00000     0.00  LINEAR    1.73726E+00   -92.77    0.00000E+00     0.00
  -60.00     0.00       4.55 -999.99    4.55    0.00000     0.00  LINEAR    1.89428E+00   -92.79    0.00000E+00     0.00
  -55.00     0.00       5.19 -999.99    5.19    0.00000     0.00  LINEAR    2.03946E+00   -92.80    0.00000E+00     0.00
  -50.00     0.00       5.73 -999.99    5.73    0.00000     0.00  LINEAR    2.16955E+00   -92.82    0.00000E+00     0.00
  -45.00     0.00       6.17 -999.99    6.17    0.00000     0.00  LINEAR    2.28134E+00   -92.83    0.00000E+00     0.00
  -40.00     0.00       6.51 -999.99    6.51    0.00000     0.00  LINEAR    2.37185E+00   -92.84    0.00000E+00     0.00
  -35.00     0.00       6.75 -999.99    6.75    0.00000     0.00  LINEAR    2.43851E+00   -92.84    0.00000E+00     0.00
  -30.00     0.00       6.89 -999.99    6.89    0.00000     0.00  LINEAR    2.47934E+00   -92.85    0.00000E+00     0.00
  -25.00     0.00       6.94 -999.99    6.94    0.00000     0.00  LINEAR    2.49309E+00   -92.85    0.00000E+00     0.00
  -20.00     0.00       6.89 -999.99    6.89    0.00000     0.00  LINEAR    2.47934E+00   -92.85    0.00000E+00     0.00
  -15.00     0.00       6.75 -999.99    6.75    0.00000     0.00  LINEAR    2.43851E+00   -92.84    0.00000E+00     0.00
  -10.00     0.00       6.51 -999.99    6.51    0.00000     0.00  LINEAR    2.37185E+00   -92.84    0.00000E+00     0.00
   -5.00     0.00       6.17 -999.99    6.17    0.00000     0.00  LINEAR    2.28134E+00   -92.83    0.00000E+00     0.00
    0.00     0.00       5.73 -999.99    5.73    0.00000     0.00  LINEAR    2.16955E+00   -92.82    0.00000E+00     0.00
    5.00     0.00       5.19 -999.99    5.19    0.00000     0.00  LINEAR    2.03946E+00   -92.80    0.00000E+00     0.00
   10.00     0.00       4.55 -999.99    4.55    0.00000     0.00  LINEAR    1.89428E+00   -92.79    0.00000E+00     0.00
   15.00     0.00       3.80 -999.99    3.80    0.00000     0.00  LINEAR    1.73726E+00   -92.77    0.00000E+00     0.00
   20.00     0.00       2.93 -999.99    2.93    0.00000     0.00  LINEAR    1.57149E+00   -92.76    0.00000E+00     0.00
   25.00     0.00       1.93 -999.99    1.93    0.00000     0.00  LINEAR    1.39978E+00   -92.74    0.00000E+00     0.00
   30.00     0.00       0.76 -999.99    0.76    0.00000     0.00  LINEAR    1.22452E+00   -92.72    0.00000E+00     0.00
   35.00     0.00      -0.59 -999.99   -0.59    0.00000     0.00  LINEAR    1.04765E+00   -92.71    0.00000E+00     0.00
   40.00     0.00      -2.20 -999.99   -2.20    0.00000     0.00  LINEAR    8.70575E-01   -92.69    0.00000E+00     0.00
   45.00     0.00      -4.17 -999.99   -4.17    0.00000     0.00  LINEAR    6.94230E-01   -92.68    0.00000E+00     0.00
   50.00     0.00      -6.69 -999.99   -6.69    0.00000     0.00  LINEAR    5.19076E-01   -92.67    0.00000E+00     0.00
   55.00     0.00     -10.23 -999.99  -10.23    0.00000     0.00  LINEAR    3.45183E-01   -92.66    0.00000E+00     0.00
   60.00     0.00     -16.27 -999.99  -16.27    0.00000     0.00  LINEAR    1.72309E-01   -92.66    0.00000E+00     0.00
   65.00     0.00    -999.99 -999.99 -999.99    0.00000     0.00            1.00709E-11    87.35    0.00000E+00     0.00
   70.00     0.00     -16.27 -999.99  -16.27    0.00000     0.00  LINEAR    1.72309E-01    87.34    0.00000E+00     0.00
   75.00     0.00     -10.23 -999.99  -10.23    0.00000     0.00  LINEAR    3.45183E-01    87.34    0.00000E+00     0.00
   80.00     0.00      -6.69 -999.99   -6.69    0.00000     0.00  LINEAR    5.19076E-01    87.33    0.00000E+00     0.00
   85.00     0.00      -4.17 -999.99   -4.17    0.00000     0.00  LINEAR    6.94230E-01    87.32    0.00000E+00     0.00
   90.00     0.00      -2.20 -999.99   -2.20    0.00000     0.00  LINEAR    8.70575E-01    87.31    0.00000E+00     0.00
   95.00     0.00      -0.59 -999.99   -0.59    0.00000     0.00  LINEAR    1.04765E+00    87.29    0.00000E+00     0.00
  100.00     0.00       0.76 -999.99    0.76    0.00000     0.00  LINEAR    1.22452E+00    87.28    0.00000E+00     0.00
  105.00     0.00       1.93 -999.99    1.93    0.00000     0.00  LINEAR    1.39978E+00    87.26    0.00000E+00     0.00
  110.00     0.00       2.93 -999.99    2.93    0.00000     0.00  LINEAR    1.57149E+00    87.24    0.00000E+00     0.00
  115.00     0.00       3.80 -999.99    3.80    0.00000     0.00  LINEAR    1.73726E+00    87.23    0.00000E+00     0.00
  120.00     0.00       4.55 -999.99    4.55    0.00000     0.00  LINEAR    1.89428E+00    87.21    0.00000E+00     0.00
  125.00     0.00       5.19 -999.99    5.19    0.00000     0.00  LINEAR    2.03946E+00    87.20    0.00000E+00     0.00
  130.00     0.00       5.73 -999.99    5.73    0.00000     0.00  LINEAR    2.16955E+00    87.18    0.00000E+00     0.00
  135.00     0.00       6.17 -999.99    6.17    0.00000     0.00  LINEAR    2.28134E+00    87.17    0.00000E+00     0.00
  140.00     0.00       6.51 -999.99    6.51    0.00000     0.00  LINEAR    2.37185E+00    87.16    0.00000E+00     0.00
  145.00     0.00       6.75 -999.99    6.75    0.00000     0.00  LINEAR    2.43851E+00    87.16    0.00000E+00     0.00
  150.00     0.00       6.89 -999.99    6.89    0.00000     0.00  LINEAR    2.47934E+00    87.15    0.00000E+00     0.00
  155.00     0.00       6.94 -999.99    6.94    0.00000     0.00  LINEAR    2.49309E+00    87.15    0.00000E+00     0.00
  160.00     0.00       6.89 -999.99    6.89    0.00000     0.00  LINEAR    2.47934E+00    87.15    0.00000E+00     0.00
  165.00     0.00       6.75 -999.99    6.75    0.00000     0.00  LINEAR    2.43851E+00    87.16    0.00000E+00     0.00
  170.00     0.00       6.51 -999.99    6.51    0.00000     0.00  LINEAR    2.37185E+00    87.16    0.00000E+00     0.00
  175.00     0.00       6.17 -999.99    6.17    0.00000     0.00  LINEAR    2.28134E+00    87.17    0.00000E+00     0.00
  180.00     0.00       5.73 -999.99    5.73    0.00000     0.00  LINEAR    2.16955E+00    87.18    0.00000E+00     0.00






 ***** DATA CARD NO.   6 RP     0    73     1  1000 -1.80000E+02  4.50000E+01  5.00000E+00  1.00000E+00  0.00000E+00  0.00000E+00



                                                - - - RADIATION PATTERNS - - -

  - - ANGLES - -           - POWER GAINS -       - - - POLARIZATION - - -    - - - E(THETA) - - -    - - - E(PHI) - - -
